(0000000000.000000) vcan0 010#0101
(0000000000.000000) vcan0 102#0144000000000002
(0000000000.000000) vcan0 103#190D8F03830001C1
(0000000000.000000) vcan0 101#1B0BE42B6407004D
(0000000000.100000) vcan0 102#01440800640010EE
(0000000000.100000) vcan0 103#240D45038310015A
(0000000000.100000) vcan0 101#230B012C64070102
(0000000000.200000) vcan0 102#01441000C80020C7
(0000000000.200000) vcan0 103#2D0DF60281200138
(0000000000.200000) vcan0 101#2B0B1E2C64070265
(0000000000.300000) vcan0 102#014418002C0130A7
(0000000000.300000) vcan0 103#350DA8028030010F
(0000000000.300000) vcan0 101#340B3A2C640703E9
(0000000000.400000) vcan0 102#0144200090014044
(0000000000.400000) vcan0 103#3C0D250280400120
(0000000000.400000) vcan0 101#360B422C640704C7
(0000000000.500000) vcan0 102#01442800F40150A8
(0000000000.500000) vcan0 103#430D9D017F50010F
(0000000000.500000) vcan0 101#370B462C64070532
(0000000000.600000) vcan0 102#0144300058026055
(0000000000.600000) vcan0 103#420D61017F6001C2
(0000000000.600000) vcan0 101#3C0B592C640706B2
(0000000000.700000) vcan0 102#01443800BC027079
(0000000000.700000) vcan0 103#420D2C018070014F
(0000000000.700000) vcan0 101#420B6C2C64070756
(0000000000.800000) vcan0 102#014440002003805F
(0000000000.800000) vcan0 103#410DF7008080014C
(0000000000.800000) vcan0 101#470B7E2C640708E3
(0000000000.900000) vcan0 102#0144480084039013
(0000000000.900000) vcan0 103#400DC600809001E0
(0000000000.900000) vcan0 101#470B872C64070970
(0000000001.000000) vcan0 102#01445000E803A09A
(0000000001.000000) vcan0 103#3E0D8D0080A0017E
(0000000001.000000) vcan0 101#400B872C64070AD9
(0000000001.100000) vcan0 102#014458004C04B02F
(0000000001.100000) vcan0 103#390D2E0081B00197
(0000000001.100000) vcan0 101#400B8C2C64070B0D
(0000000001.200000) vcan0 102#01446000B004C0AC
(0000000001.200000) vcan0 103#2D0DA1FF82C00119
(0000000001.200000) vcan0 101#400B922C64070CA6
(0000000001.300000) vcan0 102#014468001405D0AC
(0000000001.300000) vcan0 103#200D0FFF82D001BF
(0000000001.300000) vcan0 101#400B982C64070D18
(0000000001.400000) vcan0 102#014470007805E025
(0000000001.400000) vcan0 103#160DAFFE82E00104
(0000000001.400000) vcan0 101#420B922C60070E20
(0000000001.500000) vcan0 102#01447800DC05F069
(0000000001.500000) vcan0 103#110D7DFE82F001B8
(0000000001.500000) vcan0 101#480B722C56070F05
(0000000001.600000) vcan0 102#01448000400600F4
(0000000001.600000) vcan0 103#0B0D58FE82000195
(0000000001.600000) vcan0 101#1B0BAC2B35070052
(0000000001.700000) vcan0 102#01448800A40610D8
(0000000001.700000) vcan0 103#060D37FE821001E5
(0000000001.700000) vcan0 101#DA0AA72A0B07015E
(0000000001.800000) vcan0 102#01448F000807202F
(0000000001.800000) vcan0 103#FF0CFFFD82200135
(0000000001.800000) vcan0 101#970AD229001702A0
(0000000001.900000) vcan0 102#014496006C073047
(0000000001.900000) vcan0 103#F60CB6FD83300103
(0000000001.900000) vcan0 101#550A0F2900170382
(0000000002.000000) vcan0 102#01449D00D0074035
(0000000002.000000) vcan0 103#EE0C6EFD83400166
(0000000002.000000) vcan0 101#120A4B2800170436
(0000000002.100000) vcan0 102#0144A400340850FF
(0000000002.100000) vcan0 103#E70C29FD84500143
(0000000002.100000) vcan0 101#C209A4270017054E
(0000000002.200000) vcan0 102#0144AA0098086059
(0000000002.200000) vcan0 103#E00CE8FC84600147
(0000000002.200000) vcan0 101#1B09BC27001706B9
(0000000002.300000) vcan0 102#0144AF00FC08701D
(0000000002.300000) vcan0 103#DA0CABFC8470016C
(0000000002.300000) vcan0 101#7308D427001707A8
(0000000002.400000) vcan0 102#0144B500600980B1
(0000000002.400000) vcan0 103#D60C6AFC848001E3
(0000000002.400000) vcan0 101#F7074A28001708AD
(0000000002.500000) vcan0 102#0144BA00C40990F6
(0000000002.500000) vcan0 103#D40C28FC85900129
(0000000002.500000) vcan0 101#D607802900170900
(0000000002.600000) vcan0 102#0144C000280AA0E1
(0000000002.600000) vcan0 103#D10CE6FB86A0010E
(0000000002.600000) vcan0 101#B407B72A00170AB2
(0000000002.700000) vcan0 102#0144C4008C0AB06F
(0000000002.700000) vcan0 103#D30CBAFB86B001B3
(0000000002.700000) vcan0 101#5E07522900170BCF
(0000000002.800000) vcan0 102#0144C900F00AC0DC
(0000000002.800000) vcan0 103#D60C93FB86C00170
(0000000002.800000) vcan0 101#0407BC2700170C0D
(0000000002.900000) vcan0 102#0144CD00540BD01E
(0000000002.900000) vcan0 103#D80C6CFB85D001A6
(0000000002.900000) vcan0 101#AA06252600170DD4
(0000000003.000000) vcan0 102#0144D200B80BE05C
(0000000003.000000) vcan0 103#DB0C46FB85E001E2
(0000000003.000000) vcan0 101#50068E2400170E3E
(0000000003.100000) vcan0 102#0144D6001C0CF02B
(0000000003.100000) vcan0 103#E00C1DFB85F0010D
(0000000003.100000) vcan0 101#25067F2300140FC6
(0000000003.200000) vcan0 102#0144DA00800C0044
(0000000003.200000) vcan0 103#E90CF5FA850001F7
(0000000003.200000) vcan0 101#FD0579220014005F
(0000000003.300000) vcan0 102#0144DE00E40C106A
(0000000003.300000) vcan0 103#F50CCFFA851001CD
(0000000003.300000) vcan0 101#DA05E621001401A8
(0000000003.400000) vcan0 102#0144E200480D207B
(0000000003.400000) vcan0 103#030DABFA852001DB
(0000000003.400000) vcan0 101#B8055D2100140241
(0000000003.500000) vcan0 102#0144E600AC0D3095
(0000000003.500000) vcan0 103#130D88FA853001A9
(0000000003.500000) vcan0 101#9505D3200014037D
(0000000003.600000) vcan0 102#0144EA00100E4038
(0000000003.600000) vcan0 103#260D66FA8540010B
(0000000003.600000) vcan0 101#7D0557200014047A
(0000000003.700000) vcan0 102#0144EE00740E5016
(0000000003.700000) vcan0 103#3F0D45FA8650017A
(0000000003.700000) vcan0 101#6705E01F01140539
(0000000003.800000) vcan0 102#0144F100D80E6034
(0000000003.800000) vcan0 103#570D23FA866001E7
(0000000003.800000) vcan0 101#5205691F0214064E
(0000000003.900000) vcan0 102#0144F5003C0F7096
(0000000003.900000) vcan0 103#710D08FA867001E7
(0000000003.900000) vcan0 101#49054B1F030407F1
(0000000004.000000) vcan0 102#0144F900A00F80F9
(0000000004.000000) vcan0 103#8B0DF0F98680019A
(0000000004.000000) vcan0 101#4005341F0504080C
(0000000004.100000) vcan0 102#0144FC000410900A
(0000000004.100000) vcan0 103#A50DD9F98690019C
(0000000004.100000) vcan0 101#38051D1F0604099B
(0000000004.200000) vcan0 102#014400016810A0D6
(0000000004.200000) vcan0 103#C00DC2F986A001FF
(0000000004.200000) vcan0 101#2F05061F07040A23
(0000000004.300000) vcan0 102#01440401CC10B058
(0000000004.300000) vcan0 103#DE0DACF987B00134
(0000000004.300000) vcan0 101#2605E11E08040BDC
(0000000004.400000) vcan0 102#014407013011C071
(0000000004.400000) vcan0 103#FE0D97F987C00196
(0000000004.400000) vcan0 101#1305621E08040CF0
(0000000004.500000) vcan0 102#01440B019411D088
(0000000004.500000) vcan0 103#200E83F987D00174
(0000000004.500000) vcan0 101#FA04931E06040DC4
(0000000004.600000) vcan0 102#01440E01F811E047
(0000000004.600000) vcan0 103#410E6FF987E001E6
(0000000004.600000) vcan0 101#DC04601F02040EE9
(0000000004.700000) vcan0 102#014411015C12F03A
(0000000004.700000) vcan0 103#610E5EF987F00178
(0000000004.700000) vcan0 101#BE049A1F00140F78
(0000000004.800000) vcan0 102#01441501C0120022
(0000000004.800000) vcan0 103#7A0E50F98600018F
(0000000004.800000) vcan0 101#A004501F00140064
(0000000004.900000) vcan0 102#014418012413109D
(0000000004.900000) vcan0 103#950E42F98610014D
(0000000004.900000) vcan0 101#7B04921E00130186
(0000000005.000000) vcan0 102#01441B0188132093
(0000000005.000000) vcan0 103#B50E2CF9862001AB
(0000000005.000000) vcan0 101#50046A1D001302A5
(0000000005.100000) vcan0 102#01441D01EC133069
(0000000005.100000) vcan0 103#D50E15F987300113
(0000000005.100000) vcan0 101#2504421C001303AF
(0000000005.200000) vcan0 102#01442001501440AC
(0000000005.200000) vcan0 103#F40EFFF887400149
(0000000005.200000) vcan0 101#FA031B1B00130431
(0000000005.300000) vcan0 102#01442301B4145049
(0000000005.300000) vcan0 103#090FEFF88750011A
(0000000005.300000) vcan0 101#D203001A0013052B
(0000000005.400000) vcan0 102#01442501181560D4
(0000000005.400000) vcan0 103#0F0FE3F8876001CA
(0000000005.400000) vcan0 101#C10341190013061D
(0000000005.500000) vcan0 102#014428017C1570E7
(0000000005.500000) vcan0 103#160FD8F8877001AE
(0000000005.500000) vcan0 101#B0038218001307CA
(0000000005.600000) vcan0 102#01442A01E015809E
(0000000005.600000) vcan0 103#1E0FC7F88780010C
(0000000005.600000) vcan0 101#A003C31700130855
(0000000005.700000) vcan0 102#01442D014416907A
(0000000005.700000) vcan0 103#260FB1F88790016D
(0000000005.700000) vcan0 101#88034F1700130914
(0000000005.800000) vcan0 102#01442F01A816A07E
(0000000005.800000) vcan0 103#2D0F99F887A0012F
(0000000005.800000) vcan0 101#6A031F1700130AE8
(0000000005.900000) vcan0 102#014431010C17B0F1
(0000000005.900000) vcan0 103#2F0F82F887B00106
(0000000005.900000) vcan0 101#4F03D01600030B47
(0000000006.000000) vcan0 102#014434017017C035
(0000000006.000000) vcan0 103#300F69F887C0017C
(0000000006.000000) vcan0 101#3603661600030CFE
(0000000006.100000) vcan0 102#01443601D417D0DA
(0000000006.100000) vcan0 103#2B0F48F887D001EF
(0000000006.100000) vcan0 101#1C03FD1500030D5A
(0000000006.200000) vcan0 102#014438013818E0BF
(0000000006.200000) vcan0 103#250F2AF887E001A5
(0000000006.200000) vcan0 101#0703721500030EAE
(0000000006.300000) vcan0 102#01443A019C18F050
(0000000006.300000) vcan0 103#1E0F0EF888F00100
(0000000006.300000) vcan0 101#F302DD1400030F36
(0000000006.400000) vcan0 102#01443C01001900D0
(0000000006.400000) vcan0 103#1A0F01F8880001F7
(0000000006.400000) vcan0 101#EE023515030300C9
(0000000006.500000) vcan0 102#01443E016419109F
(0000000006.500000) vcan0 103#170FF7F7891001B0
(0000000006.500000) vcan0 101#EE02E11507030135
(0000000006.600000) vcan0 102#01444001C8192089
(0000000006.600000) vcan0 103#120FEBF789200169
(0000000006.600000) vcan0 101#EE028C160B030254
(0000000006.700000) vcan0 102#014442012C1A30D2
(0000000006.700000) vcan0 103#0A0FD8F789300127
(0000000006.700000) vcan0 101#F302ED160E0303AB
(0000000006.800000) vcan0 102#01444401901A4008
(0000000006.800000) vcan0 103#000FC4F78A4001C4
(0000000006.800000) vcan0 101#FD020E1711030439
(0000000006.900000) vcan0 102#01444701F41A502D
(0000000006.900000) vcan0 103#F40EB1F78B500116
(0000000006.900000) vcan0 101#07034117140305C9
(0000000007.000000) vcan0 102#01444901581B60C7
(0000000007.000000) vcan0 103#E80E9FF78C600188
(0000000007.000000) vcan0 101#1103851717030601
(0000000007.100000) vcan0 102#01444B01BC1B7048
(0000000007.100000) vcan0 103#DC0E8EF78C700107
(0000000007.100000) vcan0 101#2103DA171B0307CD
(0000000007.200000) vcan0 102#01444D01201C807D
(0000000007.200000) vcan0 103#D20E83F78D8001C3
(0000000007.200000) vcan0 101#35033D181E030831
(0000000007.300000) vcan0 102#01445001841C9000
(0000000007.300000) vcan0 103#C50E77F78D900166
(0000000007.300000) vcan0 101#4703911821030910
(0000000007.400000) vcan0 102#01445201E81CA0C4
(0000000007.400000) vcan0 103#B30E68F78EA00162
(0000000007.400000) vcan0 101#5803D61825030A40
(0000000007.500000) vcan0 102#014455014C1DB0B8
(0000000007.500000) vcan0 103#A00E59F78EB001CD
(0000000007.500000) vcan0 101#6A03481929030B7D
(0000000007.600000) vcan0 102#01445701B01DC0B7
(0000000007.600000) vcan0 103#8F0E4EF78EC00130
(0000000007.600000) vcan0 101#8A03CD1A2E030CF2
(0000000007.700000) vcan0 102#01445A01141ED0F0
(0000000007.700000) vcan0 103#7D0E45F78ED0015E
(0000000007.700000) vcan0 101#AB03F61B33030D3B
(0000000007.800000) vcan0 102#01445D01781EE0EB
(0000000007.800000) vcan0 103#6B0E3DF78FE001BD
(0000000007.800000) vcan0 101#CF03D31C37030E28
(0000000007.900000) vcan0 102#01445F01DC1EF004
(0000000007.900000) vcan0 103#580E36F78FF001F1
(0000000007.900000) vcan0 101#F303AF1D3B030FBD
(0000000008.000000) vcan0 102#01446201401F0062
(0000000008.000000) vcan0 103#3C0E2FF7900001A6
(0000000008.000000) vcan0 101#1304761E3D030029
(0000000008.100000) vcan0 102#01446601A41F108C
(0000000008.100000) vcan0 103#1F0E2AF7911001CA
(0000000008.100000) vcan0 101#3304341F3F03018E
(0000000008.200000) vcan0 102#0144690108202022
(0000000008.200000) vcan0 103#000E27F7922001CA
(0000000008.200000) vcan0 101#5304F11F4103023A
(0000000008.300000) vcan0 102#01446C016C203066
(0000000008.300000) vcan0 103#E20D23F793300124
(0000000008.300000) vcan0 101#7304AF204303032B
(0000000008.400000) vcan0 102#01447001D02040F1
(0000000008.400000) vcan0 103#C20D21F79440013E
(0000000008.400000) vcan0 101#9404C621460304B1
(0000000008.500000) vcan0 102#0144730134215058
(0000000008.500000) vcan0 103#A10D1FF7965001E6
(0000000008.500000) vcan0 101#B70491234B0305FC
(0000000008.600000) vcan0 102#0144760198216037
(0000000008.600000) vcan0 103#800D1FF79760019A
(0000000008.600000) vcan0 101#E1042025500306F8
(0000000008.700000) vcan0 102#01447A01FC21706E
(0000000008.700000) vcan0 103#5D0D20F799700154
(0000000008.700000) vcan0 101#1905362655030764
(0000000008.800000) vcan0 102#01447E01602280A2
(0000000008.800000) vcan0 103#2E0D21F79A8001BF
(0000000008.800000) vcan0 101#2805652757030805
(0000000008.900000) vcan0 102#01448101C4229076
(0000000008.900000) vcan0 103#F80C24F79D90010D
(0000000008.900000) vcan0 101#2F056528570309FE
(0000000009.000000) vcan0 102#014486012823A0E1
(0000000009.000000) vcan0 103#D30C28F79FA00157
(0000000009.000000) vcan0 101#6305F0275A030A43
(0000000009.100000) vcan0 102#01448A018C23B018
(0000000009.100000) vcan0 103#B30C2BF7A0B00142
(0000000009.100000) vcan0 101#97057B275D030BFE
(0000000009.200000) vcan0 102#01448E01F023C0B6
(0000000009.200000) vcan0 103#940C2FF7A1C001B2
(0000000009.200000) vcan0 101#CB05062760030CC4
(0000000009.300000) vcan0 102#014493015424D032
(0000000009.300000) vcan0 103#670C37F7A3D001D2
(0000000009.300000) vcan0 101#FF05922662030D80
(0000000009.400000) vcan0 102#01449701B824E057
(0000000009.400000) vcan0 103#2C0C43F7A5E001F8
(0000000009.400000) vcan0 101#3106C52664040E95
(0000000009.500000) vcan0 102#01449C011C25F0E9
(0000000009.500000) vcan0 103#EB0B51F7A7F0014B
(0000000009.500000) vcan0 101#5E064A2864040FCF
(0000000009.600000) vcan0 102#0144A101802500C3
(0000000009.600000) vcan0 103#B60B5EF7A900015D
(0000000009.600000) vcan0 101#8806822964040037
(0000000009.700000) vcan0 102#0144A601E4251053
(0000000009.700000) vcan0 103#8D0B6AF7AA10011C
(0000000009.700000) vcan0 101#AC061C2A6404014D
(0000000009.800000) vcan0 102#0144AB014826209F
(0000000009.800000) vcan0 103#640B77F7AB20018B
(0000000009.800000) vcan0 101#D006B62A64040298
(0000000009.900000) vcan0 102#0144B001AC2630E3
(0000000009.900000) vcan0 103#3B0B83F7AC3001A8
(0000000009.900000) vcan0 101#F406512B64040368
(0000000010.000000) vcan0 102#0144B501102740CB
(0000000010.000000) vcan0 103#0D0B92F7AD40018D
(0000000010.000000) vcan0 101#0807B52B640404A7
(0000000010.100000) vcan0 102#0144BA017427502C
(0000000010.100000) vcan0 103#DB0AA2F7AE5001C9
(0000000010.100000) vcan0 101#1607062C64040544
(0000000010.200000) vcan0 102#0144BF01D8276043
(0000000010.200000) vcan0 103#9B0AB8F7AF600114
(0000000010.200000) vcan0 101#2507572C64040649
(0000000010.300000) vcan0 102#0144C4013C2870C2
(0000000010.300000) vcan0 103#550AD1F7B0700103
(0000000010.300000) vcan0 101#5E07222B640407F2
(0000000010.400000) vcan0 102#0144CA01A0288079
(0000000010.400000) vcan0 103#0D0AEBF7B1800157
(0000000010.400000) vcan0 101#9B07D02964040862
(0000000010.500000) vcan0 102#0144D00104299043
(0000000010.500000) vcan0 103#CD0905F8B1900155
(0000000010.500000) vcan0 101#D207BC2864050963
(0000000010.600000) vcan0 102#0144D5016829A08C
(0000000010.600000) vcan0 103#96091EF8B2A0016D
(0000000010.600000) vcan0 101#E1074C2964050A7B
(0000000010.700000) vcan0 102#0144DB01CC29B0A1
(0000000010.700000) vcan0 103#600936F8B2B00115
(0000000010.700000) vcan0 101#F307DA2964050BC9
(0000000010.800000) vcan0 102#0144E101302AC022
(0000000010.800000) vcan0 103#35094BF8B2C00175
(0000000010.800000) vcan0 101#1B08572A64050CAC
(0000000010.900000) vcan0 102#0144E701942AD078
(0000000010.900000) vcan0 103#12095DF8B2D001AF
(0000000010.900000) vcan0 101#4208D62A64050D10
(0000000011.000000) vcan0 102#0144ED01F82AE0CB
(0000000011.000000) vcan0 103#F2086FF8B2E001C3
(0000000011.000000) vcan0 101#6408582B64050E23
(0000000011.100000) vcan0 102#0144F3015C2BF044
(0000000011.100000) vcan0 103#D20882F8B2F001CD
(0000000011.100000) vcan0 101#8508DB2B64050FEE
(0000000011.200000) vcan0 102#0144F901C02B004A
(0000000011.200000) vcan0 103#A6089BF8B20001BD
(0000000011.200000) vcan0 101#A6085D2C6405006B
(0000000011.300000) vcan0 102#0144FF01242C1089
(0000000011.300000) vcan0 103#7308BCF8B2100131
(0000000011.300000) vcan0 101#BD08CC2C6405015D
(0000000011.400000) vcan0 102#01440602882C200D
(0000000011.400000) vcan0 103#3C08DFF8B120011E
(0000000011.400000) vcan0 101#C908292D64050224
(0000000011.500000) vcan0 102#01440C02EC2C3035
(0000000011.500000) vcan0 103#060802F9B1300173
(0000000011.500000) vcan0 101#E708982D64050331
(0000000011.600000) vcan0 102#01441202502D403A
(0000000011.600000) vcan0 103#D20725F9B14001F8
(0000000011.600000) vcan0 101#0009582D64050406
(0000000011.700000) vcan0 102#01441902B42D50A8
(0000000011.700000) vcan0 103#9D074AF9B0500163
(0000000011.700000) vcan0 101#0F09B22B640505F0
(0000000011.800000) vcan0 102#01441F02182E60AD
(0000000011.800000) vcan0 103#670770F9B06001EF
(0000000011.800000) vcan0 101#1D090C2A64050653
(0000000011.900000) vcan0 102#014426027C2E7004
(0000000011.900000) vcan0 103#1807ABF9B0700194
(0000000011.900000) vcan0 101#2F096729640607DB
(0000000012.000000) vcan0 102#01442D02E02E8060
(0000000012.000000) vcan0 103#C406E9F9B0800106
(0000000012.000000) vcan0 101#4309A52964060802
(0000000012.100000) vcan0 102#01443302442F90EF
(0000000012.100000) vcan0 103#890615FAB0900161
(0000000012.100000) vcan0 101#5309D729640609C2
(0000000012.200000) vcan0 102#01443A02A82FA022
(0000000012.200000) vcan0 103#660630FAB0A001F2
(0000000012.200000) vcan0 101#6209002A64060A8D
(0000000012.300000) vcan0 102#014441020C30B077
(0000000012.300000) vcan0 103#43064BFAB0B00164
(0000000012.300000) vcan0 101#7009282A64060B25
(0000000012.400000) vcan0 102#014448027030C071
(0000000012.400000) vcan0 103#200667FAB0C0011A
(0000000012.400000) vcan0 101#7409582A64060CAF
(0000000012.500000) vcan0 102#01444E02D430D02B
(0000000012.500000) vcan0 103#F80588FAB0D00171
(0000000012.500000) vcan0 101#74098A2A64060D34
(0000000012.600000) vcan0 102#014455023831E090
(0000000012.600000) vcan0 103#C305B3FAB0E001B5
(0000000012.600000) vcan0 101#7409BD2A64060E37
(0000000012.700000) vcan0 102#01445C029C31F0B6
(0000000012.700000) vcan0 103#9205DBFAB0F00112
(0000000012.700000) vcan0 101#7209DE2A60060F1F
(0000000012.800000) vcan0 102#01446202003200F6
(0000000012.800000) vcan0 103#5B0508FBB0000171
(0000000012.800000) vcan0 101#6109862A440600CA
(0000000012.900000) vcan0 102#01446902643210A4
(0000000012.900000) vcan0 103#F5045AFBB01001E9
(0000000012.900000) vcan0 101#50092F2A29060176
(0000000013.000000) vcan0 102#01447002C83220E7
(0000000013.000000) vcan0 103#7E04B9FBB020017F
(0000000013.000000) vcan0 101#3F09D7290D0602D4
(0000000013.100000) vcan0 102#014475022C33302F
(0000000013.100000) vcan0 103#4504E7FBB030014F
(0000000013.100000) vcan0 101#F4086A2900160350
(0000000013.200000) vcan0 102#01447B0290334082
(0000000013.200000) vcan0 103#2C04FCFBB040017D
(0000000013.200000) vcan0 101#7708EA28001604FB
(0000000013.300000) vcan0 102#01448102F4335029
(0000000013.300000) vcan0 103#130412FCB05001DC
(0000000013.300000) vcan0 101#FA076A2800160547
(0000000013.400000) vcan0 102#014486025834606B
(0000000013.400000) vcan0 103#FE0325FCB0600100
(0000000013.400000) vcan0 101#BB07ED27001606A3
(0000000013.500000) vcan0 102#01448B02BC347098
(0000000013.500000) vcan0 103#E10341FCB07001BA
(0000000013.500000) vcan0 101#91077127001607B6
(0000000013.600000) vcan0 102#014490022035805E
(0000000013.600000) vcan0 103#BC0366FCAF80018D
(0000000013.600000) vcan0 101#6807F52600160820
(0000000013.700000) vcan0 102#01449502843590BA
(0000000013.700000) vcan0 103#98038BFCAF9001EA
(0000000013.700000) vcan0 101#3507702600150994
(0000000013.800000) vcan0 102#01449A02E835A0D6
(0000000013.800000) vcan0 103#7803B0FCAEA00152
(0000000013.800000) vcan0 101#C706B42500150A55
(0000000013.900000) vcan0 102#01449E024C36B08C
(0000000013.900000) vcan0 103#5803D4FCAEB00162
(0000000013.900000) vcan0 101#6006F62400140B92
(0000000014.000000) vcan0 102#0144A202B036C0BA
(0000000014.000000) vcan0 103#3E03F8FCAEC00128
(0000000014.000000) vcan0 101#2A06262400140C25
(0000000014.100000) vcan0 102#0144A7021437D012
(0000000014.100000) vcan0 103#26031CFDADD0012E
(0000000014.100000) vcan0 101#F405552300140DCF
(0000000014.200000) vcan0 102#0144AB027837E0C0
(0000000014.200000) vcan0 103#130340FDACE00131
(0000000014.200000) vcan0 101#D7059E2200140E88
(0000000014.300000) vcan0 102#0144AF02DC37F04E
(0000000014.300000) vcan0 103#020364FDABF0019F
(0000000014.300000) vcan0 101#C305F02100140FB7
(0000000014.400000) vcan0 102#0144B3024038006C
(0000000014.400000) vcan0 103#F40288FDAA000171
(0000000014.400000) vcan0 101#AF05A92102140069
(0000000014.500000) vcan0 102#0144B702A4381082
(0000000014.500000) vcan0 103#EC02ADFDAA1001B0
(0000000014.500000) vcan0 101#9B058521041401CD
(0000000014.600000) vcan0 102#0144BB02083920BC
(0000000014.600000) vcan0 103#E702D3FDA920016E
(0000000014.600000) vcan0 101#8D051B2107040263
(0000000014.700000) vcan0 102#0144BF026C393092
(0000000014.700000) vcan0 103#E702FAFDA8300189
(0000000014.700000) vcan0 101#800595200B04033A
(0000000014.800000) vcan0 102#0144C302D039405B
(0000000014.800000) vcan0 103#E90221FEA8400182
(0000000014.800000) vcan0 101#7605482010040471
(0000000014.900000) vcan0 102#0144C602343A500B
(0000000014.900000) vcan0 103#EE0249FEA7500117
(0000000014.900000) vcan0 101#70056B20180405CC
(0000000015.000000) vcan0 102#0144CA02983A6079
(0000000015.000000) vcan0 103#F40271FEA66001D0
(0000000015.000000) vcan0 101#6E05BF202704061A
(0000000015.100000) vcan0 102#0144CE02FC3A7057
(0000000015.100000) vcan0 103#FA0299FEA57001E3
(0000000015.100000) vcan0 101#7005382138040794
(0000000015.200000) vcan0 102#0144D202603B809A
(0000000015.200000) vcan0 103#FD02C1FEA380018C
(0000000015.200000) vcan0 101#7E0526223B0408E0
(0000000015.300000) vcan0 102#0144D602C43B9014
(0000000015.300000) vcan0 103#0003E8FEA2900162
(0000000015.300000) vcan0 101#8C0513233F040985
(0000000015.400000) vcan0 102#0144DA02283CA0FF
(0000000015.400000) vcan0 103#02030FFFA1A0017E
(0000000015.400000) vcan0 101#9F05ED2342040AB4
(0000000015.500000) vcan0 102#0144DE028C3CB071
(0000000015.500000) vcan0 103#FF023BFFA0B001D6
(0000000015.500000) vcan0 101#B805A02445040B01
(0000000015.600000) vcan0 102#0144E202F03CC087
(0000000015.600000) vcan0 103#FC0268FF9EC001F4
(0000000015.600000) vcan0 101#D005532548040C04
(0000000015.700000) vcan0 102#0144E702543DD02F
(0000000015.700000) vcan0 103#F70294FF9CD00127
(0000000015.700000) vcan0 101#EE05C9243E040D70
(0000000015.800000) vcan0 102#0144EB02B83DE03D
(0000000015.800000) vcan0 103#F002BEFF9AE0010F
(0000000015.800000) vcan0 101#0C06272433040ED9
(0000000015.900000) vcan0 102#0144EF021C3EF067
(0000000015.900000) vcan0 103#E502E7FF98F00159
(0000000015.900000) vcan0 101#0E067D242F040FBE
(0000000016.000000) vcan0 102#0144F402803E00ED
(0000000016.000000) vcan0 103#D9020F0096000173
(0000000016.000000) vcan0 101#0E06E6242D040002
(0000000016.100000) vcan0 102#0144F802E43E10B4
(0000000016.100000) vcan0 103#CC023500941001C5
(0000000016.100000) vcan0 101#0E064F252A0401F7
(0000000016.200000) vcan0 102#0144FC02483F20FD
(0000000016.200000) vcan0 103#BB02580092200171
(0000000016.200000) vcan0 101#1806D5253304024F
(0000000016.300000) vcan0 102#01440103AC3F3000
(0000000016.300000) vcan0 103#A8027C0091300163
(0000000016.300000) vcan0 101#26066726410403AC
(0000000016.400000) vcan0 102#0144050310404086
(0000000016.400000) vcan0 103#8F02A2008F4001FC
(0000000016.400000) vcan0 101#3506F8264F040419
(0000000016.500000) vcan0 102#01440A0374405061
(0000000016.500000) vcan0 103#7302C8008D5001A4
(0000000016.500000) vcan0 101#520608285504054A
(0000000016.600000) vcan0 102#01440F03D840600E
(0000000016.600000) vcan0 103#5602EE008C600111
(0000000016.600000) vcan0 101#700622295A0406C1
(0000000016.700000) vcan0 102#014413033C417035
(0000000016.700000) vcan0 103#390214018B70016F
(0000000016.700000) vcan0 101#8E063C2A5E040730
(0000000016.800000) vcan0 102#01441803A0418051
(0000000016.800000) vcan0 103#17023F01898001E8
(0000000016.800000) vcan0 101#AC06562B64040819
(0000000016.900000) vcan0 102#01441D0304429061
(0000000016.900000) vcan0 103#E5017E0187900179
(0000000016.900000) vcan0 101#CF06002C640409B6
(0000000017.000000) vcan0 102#014422036842A022
(0000000017.000000) vcan0 103#B201BE0185A001EE
(0000000017.000000) vcan0 101#F206A12C64040A29
(0000000017.100000) vcan0 102#01442703CC42B0C6
(0000000017.100000) vcan0 103#9A01DB0185B00166
(0000000017.100000) vcan0 101#1D07022C64040B62
(0000000017.200000) vcan0 102#01442D033043C0F2
(0000000017.200000) vcan0 103#8801F10184C001A3
(0000000017.200000) vcan0 101#4A074B2B64040CAE
(0000000017.300000) vcan0 102#014432039443D05B
(0000000017.300000) vcan0 103#7601070284D001F7
(0000000017.300000) vcan0 101#7707942A64040D30
(0000000017.400000) vcan0 102#01443803F843E0E8
(0000000017.400000) vcan0 103#4C01390284E001B1
(0000000017.400000) vcan0 101#9E07F52964040E06
(0000000017.500000) vcan0 102#01443D035C44F0F5
(0000000017.500000) vcan0 103#0F01830283F00119
(0000000017.500000) vcan0 101#BC07882964040FD6
(0000000017.600000) vcan0 102#01444303C04400FE
(0000000017.600000) vcan0 103#E100BC0282000170
(0000000017.600000) vcan0 101#DE075C29640500CD
(0000000017.700000) vcan0 102#014449032445104A
(0000000017.700000) vcan0 103#C800DA028210011B
(0000000017.700000) vcan0 101#0908B12964050188
(0000000017.800000) vcan0 102#01444F038845209B
(0000000017.800000) vcan0 103#B000F80282200115
(0000000017.800000) vcan0 101#3408052A6405029C
(0000000017.900000) vcan0 102#01445403EC453027
(0000000017.900000) vcan0 103#93001703823001B5
(0000000017.900000) vcan0 101#5508862A640503F0
(0000000018.000000) vcan0 102#01445B0350464034
(0000000018.000000) vcan0 103#730037038240014F
(0000000018.000000) vcan0 101#6E082E2B64050448
(0000000018.100000) vcan0 102#01446103B44650E3
(0000000018.100000) vcan0 103#4A005E03825001E1
(0000000018.100000) vcan0 101#8808D82B64050564
(0000000018.200000) vcan0 102#014467031847607E
(0000000018.200000) vcan0 103#09009D038260011B
(0000000018.200000) vcan0 101#A708942C640506D9
(0000000018.300000) vcan0 102#01446D037C477046
(0000000018.300000) vcan0 103#C9FFD703827001E5
(0000000018.300000) vcan0 101#BF08E12C640507C0
(0000000018.400000) vcan0 102#01447303E0478013
(0000000018.400000) vcan0 103#97FF0004828001CC
(0000000018.400000) vcan0 101#CE08CB2C6405084C
(0000000018.500000) vcan0 102#01447A0344489096
(0000000018.500000) vcan0 103#66FF28048290013A
(0000000018.500000) vcan0 101#DE08B52C6405094E
(0000000018.600000) vcan0 102#01448003A848A076
(0000000018.600000) vcan0 103#34FF510482A0018B
(0000000018.600000) vcan0 101#EE089E2C64050AB7
(0000000018.700000) vcan0 102#014487030C49B00A
(0000000018.700000) vcan0 103#07FF750482B0017A
(0000000018.700000) vcan0 101#FF085A2C64050B47
(0000000018.800000) vcan0 102#01448D037049C0B2
(0000000018.800000) vcan0 103#E6FE8F0483C001E5
(0000000018.800000) vcan0 101#1809E42A64050CBF
(0000000018.900000) vcan0 102#01449403D449D07A
(0000000018.900000) vcan0 103#C5FEA90483D00179
(0000000018.900000) vcan0 101#3109AB2964060DCF
(0000000019.000000) vcan0 102#01449A03384AE068
(0000000019.000000) vcan0 103#99FECC0483E001E5
(0000000019.000000) vcan0 101#4B09132A64060E49
(0000000019.100000) vcan0 102#0144A1039C4AF0B5
(0000000019.100000) vcan0 103#65FEF60483F001CF
(0000000019.100000) vcan0 101#64097A2A64060F24
(0000000019.200000) vcan0 102#0144A803004B0049
(0000000019.200000) vcan0 103#31FE20058300018D
(0000000019.200000) vcan0 101#7C09E12A640600F0
(0000000019.300000) vcan0 102#0144AF03644B10D9
(0000000019.300000) vcan0 103#FFFD4D058310017B
(0000000019.300000) vcan0 101#9009362B64060182
(0000000019.400000) vcan0 102#0144B603C84B209A
(0000000019.400000) vcan0 103#CFFD7C0583200129
(0000000019.400000) vcan0 101#9E097B2B64060293
(0000000019.500000) vcan0 102#0144BD032C4C30F1
(0000000019.500000) vcan0 103#A3FDB005833001E9
(0000000019.500000) vcan0 101#AD09C02B6406037A
(0000000019.600000) vcan0 102#0144C403904C40E7
(0000000019.600000) vcan0 103#78FDE305834001FE
(0000000019.600000) vcan0 101#BC09052C6406045A
(0000000019.700000) vcan0 102#0144CB03F44C5000
(0000000019.700000) vcan0 103#4EFD1906835001C5
(0000000019.700000) vcan0 101#CA09492C640605C1
(0000000019.800000) vcan0 102#0144D203584D600F
(0000000019.800000) vcan0 103#2BFD560683600162
(0000000019.800000) vcan0 101#D809722C64060603
(0000000019.900000) vcan0 102#0144D903BC4D709D
(0000000019.900000) vcan0 103#0AFD94068370018C
(0000000019.900000) vcan0 101#E709902C6406073D
(0000000020.000000) vcan0 102#0144E003204E80D6
(0000000020.000000) vcan0 103#EDFCD506828001CC
(0000000020.000000) vcan0 101#F409AE2C640608E1
(0000000020.100000) vcan0 102#0144E703844E90E6
(0000000020.100000) vcan0 103#D1FC18078290019C
(0000000020.100000) vcan0 101#010AC92C640609FE
(0000000020.200000) vcan0 102#0144EE03E84EA0EB
(0000000020.200000) vcan0 103#B8FC5C0782A00149
(0000000020.200000) vcan0 101#090ACE2C64060A00
(0000000020.300000) vcan0 102#0144F6034C4FB005
(0000000020.300000) vcan0 103#A1FCA00782B0019A
(0000000020.300000) vcan0 101#120AD42C64060BDC
(0000000020.400000) vcan0 102#0144FD03B04FC017
(0000000020.400000) vcan0 103#8BFCE40782C0019C
(0000000020.400000) vcan0 101#1A0ADB2C64060C21
(0000000020.500000) vcan0 102#014404041450D041
(0000000020.500000) vcan0 103#7BFC290882D001FD
(0000000020.500000) vcan0 101#200AF52C64060D55
(0000000020.600000) vcan0 102#01440B047850E02D
(0000000020.600000) vcan0 103#6DFC6F0882E001A8
(0000000020.600000) vcan0 101#240A222D64060EDF
(0000000020.700000) vcan0 102#01441304DC50F08F
(0000000020.700000) vcan0 103#60FCB60882F001B5
(0000000020.700000) vcan0 101#270A4F2D64060FD3
(0000000020.800000) vcan0 102#01441A0440510073
(0000000020.800000) vcan0 103#59FC02098200012A
(0000000020.800000) vcan0 101#280A882D64060083
(0000000020.900000) vcan0 102#01442104A45110CE
(0000000020.900000) vcan0 103#54FC4F09811001C3
(0000000020.900000) vcan0 101#290AB72D64060190
(0000000021.000000) vcan0 102#01442804085220B7
(0000000021.000000) vcan0 103#51FC9A09812001BB
(0000000021.000000) vcan0 101#2F0A952D64060271
(0000000021.100000) vcan0 102#01442F046C523027
(0000000021.100000) vcan0 103#50FCE309813001FF
(0000000021.100000) vcan0 101#350A952D640603BD
(0000000021.200000) vcan0 102#01443704D0524005
(0000000021.200000) vcan0 103#51FC2C0A814001F3
(0000000021.200000) vcan0 101#3A0AB12D640604C6
(0000000021.300000) vcan0 102#01443E043453500F
(0000000021.300000) vcan0 103#52FC750A815001CC
(0000000021.300000) vcan0 101#3E0AAF2D5B0605E4
(0000000021.400000) vcan0 102#01444504985360C6
(0000000021.400000) vcan0 103#53FCBE0A826001A9
(0000000021.400000) vcan0 101#420A932D4A06060A
(0000000021.500000) vcan0 102#01444D04FC53702A
(0000000021.500000) vcan0 103#56FC070B827001A5
(0000000021.500000) vcan0 101#450A772D39060795
(0000000021.600000) vcan0 102#014454046054808D
(0000000021.600000) vcan0 103#59FC500B838001EE
(0000000021.600000) vcan0 101#460ACE2C25060857
(0000000021.700000) vcan0 102#01445B04C45490CA
(0000000021.700000) vcan0 103#5CFC970B839001D9
(0000000021.700000) vcan0 101#460AF12B0F0609D2
(0000000021.800000) vcan0 102#014462042855A064
(0000000021.800000) vcan0 103#5FFCDD0B83A001C3
(0000000021.800000) vcan0 101#320A152B00060ADA
(0000000021.900000) vcan0 102#014469048C55B096
(0000000021.900000) vcan0 103#63FC230C84B001E1
(0000000021.900000) vcan0 101#F7093D2A00060B6D
(0000000022.000000) vcan0 102#01447004F055C07E
(0000000022.000000) vcan0 103#68FC690C85C0014C
(0000000022.000000) vcan0 101#BC09662900060CD7
(0000000022.100000) vcan0 102#014477045456D09A
(0000000022.100000) vcan0 103#6DFCB00C86D0010F
(0000000022.100000) vcan0 101#7909942800160DEF
(0000000022.200000) vcan0 102#01447D04B856E0E9
(0000000022.200000) vcan0 103#70FCEF0C88E00195
(0000000022.200000) vcan0 101#0609EC2700160E33
(0000000022.300000) vcan0 102#014483041C57F01B
(0000000022.300000) vcan0 103#71FC2A0D89F0010D
(0000000022.300000) vcan0 101#99085A2700160F41
(0000000022.400000) vcan0 102#0144890480570015
(0000000022.400000) vcan0 103#70FC620D8A0001D6
(0000000022.400000) vcan0 101#51085A2700160057
(0000000022.500000) vcan0 102#01448E04E4571085
(0000000022.500000) vcan0 103#6CFC980D8B1001DF
(0000000022.500000) vcan0 101#09085A27001601FF
(0000000022.600000) vcan0 102#01449304485820D0
(0000000022.600000) vcan0 103#67FCCC0D8B2001EF
(0000000022.600000) vcan0 101#C1075A27001602B0
(0000000022.700000) vcan0 102#01449904AC583028
(0000000022.700000) vcan0 103#5FFCFC0D8C3001FA
(0000000022.700000) vcan0 101#BC075A2700150397
(0000000022.800000) vcan0 102#01449F04105940BE
(0000000022.800000) vcan0 103#56FC2F0E8C400108
(0000000022.800000) vcan0 101#BC075A27001504C4
(0000000022.900000) vcan0 102#0144A304745950C8
(0000000022.900000) vcan0 103#41FC790E8E500198
(0000000022.900000) vcan0 101#6A079127001505B9
(0000000023.000000) vcan0 102#0144A704D85960CD
(0000000023.000000) vcan0 103#2EFCB00E8E600115
(0000000023.000000) vcan0 101#CE06F72700150640
(0000000023.100000) vcan0 102#0144AB043C5A7080
(0000000023.100000) vcan0 103#1EFCD30E8F700118
(0000000023.100000) vcan0 101#33065E2800150785
(0000000023.200000) vcan0 102#0144AF04A05A8098
(0000000023.200000) vcan0 103#0EFCF60E908001C3
(0000000023.200000) vcan0 101#9705C52800150857
(0000000023.300000) vcan0 102#0144B304045B90C3
(0000000023.300000) vcan0 103#00FC060F919001F7
(0000000023.300000) vcan0 101#4C05412600140996
(0000000023.400000) vcan0 102#0144B604685BA00C
(0000000023.400000) vcan0 103#F2FB160F91A00104
(0000000023.400000) vcan0 101#0705A92300130A7A
(0000000023.500000) vcan0 102#0144B904CC5BB04B
(0000000023.500000) vcan0 103#DDFB2D0F92B001E9
(0000000023.500000) vcan0 101#C1045B2100130BED
(0000000023.600000) vcan0 102#0144BD04305CC0DC
(0000000023.600000) vcan0 103#C0FB470F93C001EF
(0000000023.600000) vcan0 101#8F04911F00130CE4
(0000000023.700000) vcan0 102#0144C004945CD0FF
(0000000023.700000) vcan0 103#93FB650F94D00144
(0000000023.700000) vcan0 101#8704D71E00130D48
(0000000023.800000) vcan0 102#0144C304F85CE051
(0000000023.800000) vcan0 103#69FB7F0F95E00186
(0000000023.800000) vcan0 101#7F041D1E00130E0B
(0000000023.900000) vcan0 102#0144C6045C5DF0F9
(0000000023.900000) vcan0 103#4CFB850F95F00159
(0000000023.900000) vcan0 101#5F04831D00130F18
(0000000024.000000) vcan0 102#0144C904C05D0028
(0000000024.000000) vcan0 103#31FB8B0F960001CF
(0000000024.000000) vcan0 101#3E04EB1C001300FB
(0000000024.100000) vcan0 102#0144CC04245E1078
(0000000024.100000) vcan0 103#19FB8F0F96100173
(0000000024.100000) vcan0 101#1F04921C01030142
(0000000024.200000) vcan0 102#0144CF04885E2076
(0000000024.200000) vcan0 103#04FB8F0F962001ED
(0000000024.200000) vcan0 101#0204711C04030270
(0000000024.300000) vcan0 102#0144D104EC5E3015
(0000000024.300000) vcan0 103#F1FA900F9730019F
(0000000024.300000) vcan0 101#E603501C06030373
(0000000024.400000) vcan0 102#0144D404505F403D
(0000000024.400000) vcan0 103#DFFA900F974001DA
(0000000024.400000) vcan0 101#D903541C0C030410
(0000000024.500000) vcan0 102#0144D704B45F50D8
(0000000024.500000) vcan0 103#CCFA900F985001B6
(0000000024.500000) vcan0 101#D403741C130305B4
(0000000024.600000) vcan0 102#0144D9041860601C
(0000000024.600000) vcan0 103#B2FA8E0F99600109
(0000000024.600000) vcan0 101#D803F91C190306AC
(0000000024.700000) vcan0 102#0144DC047C607058
(0000000024.700000) vcan0 103#96FA8C0F9970016F
(0000000024.700000) vcan0 101#DC037E1D1F030768
(0000000024.800000) vcan0 102#0144DF04E060804B
(0000000024.800000) vcan0 103#79FA890F9980011E
(0000000024.800000) vcan0 101#E203271E26030879
(0000000024.900000) vcan0 102#0144E204446190BB
(0000000024.900000) vcan0 103#71FA890F99900178
(0000000024.900000) vcan0 101#EF03171F2F0309B3
(0000000025.000000) vcan0 102#0144E504A861A060
(0000000025.000000) vcan0 103#75FA8A0F99A0016E
(0000000025.000000) vcan0 101#0904EB1F36030A52
(0000000025.100000) vcan0 102#0144E8040C62B027
(0000000025.100000) vcan0 103#6AFA890F99B00181
(0000000025.100000) vcan0 101#2A04B4203C030BC2
(0000000025.200000) vcan0 102#0144EB047062C082
(0000000025.200000) vcan0 103#58FA870F9AC0015C
(0000000025.200000) vcan0 101#4A047E2143030C6C
(0000000025.300000) vcan0 102#0144EE04D462D066
(0000000025.300000) vcan0 103#38FA850F9AD0018D
(0000000025.300000) vcan0 101#7804582248030D87
(0000000025.400000) vcan0 102#0144F2043863E0D6
(0000000025.400000) vcan0 103#16FA820F9BE001A6
(0000000025.400000) vcan0 101#A70433234D030EB9
(0000000025.500000) vcan0 102#0144F5049C63F0E6
(0000000025.500000) vcan0 103#F4F9820F9BF00172
(0000000025.500000) vcan0 101#D6040E2452030F1C
(0000000025.600000) vcan0 102#0144F90400640070
(0000000025.600000) vcan0 103#D1F9820F9B0001CB
(0000000025.600000) vcan0 101#FD04E0245503001C
(0000000025.700000) vcan0 102#0144FD046464105E
(0000000025.700000) vcan0 103#AEF9850F9C1001AA
(0000000025.700000) vcan0 101#11059E25530301D2
(0000000025.800000) vcan0 102#01440005C8642048
(0000000025.800000) vcan0 103#8AF9890F9E2001AC
(0000000025.800000) vcan0 101#1E059525500302EC
(0000000025.900000) vcan0 102#014404052C6530EA
(0000000025.900000) vcan0 103#6AF98F0F9E300169
(0000000025.900000) vcan0 101#1E05F8234C03037C
(0000000026.000000) vcan0 102#0144080590654093
(0000000026.000000) vcan0 103#4AF9960F9F400151
(0000000026.000000) vcan0 101#1E055A2248030482
(0000000026.100000) vcan0 102#01440B05F46550B6
(0000000026.100000) vcan0 103#15F9AD0F9F500138
(0000000026.100000) vcan0 101#580553224503050A
(0000000026.200000) vcan0 102#01440F0558666067
(0000000026.200000) vcan0 103#D9F8CC0FA06001E1
(0000000026.200000) vcan0 101#8C05952244040629
(0000000026.300000) vcan0 102#01441305BC667010
(0000000026.300000) vcan0 103#ABF8E60FA0700185
(0000000026.300000) vcan0 101#AC0531234804079B
(0000000026.400000) vcan0 102#0144180520678038
(0000000026.400000) vcan0 103#96F8F50FA1800188
(0000000026.400000) vcan0 101#BF0509244C0408D4
(0000000026.500000) vcan0 102#01441C05846790B6
(0000000026.500000) vcan0 103#88F80310A190013B
(0000000026.500000) vcan0 101#CD05F72451040963
(0000000026.600000) vcan0 102#01442005E867A04B
(0000000026.600000) vcan0 103#78F81210A2A0015B
(0000000026.600000) vcan0 101#DB05E42556040A69
(0000000026.700000) vcan0 102#014424054C68B066
(0000000026.700000) vcan0 103#59F83110A2B001A2
(0000000026.700000) vcan0 101#F4053A2658040BB0
(0000000026.800000) vcan0 102#01442905B068C015
(0000000026.800000) vcan0 103#3AF85010A3C00164
(0000000026.800000) vcan0 101#0C0687265B040C7A
(0000000026.900000) vcan0 102#01442D051469D0D7
(0000000026.900000) vcan0 103#1EF87410A3D001A2
(0000000026.900000) vcan0 101#3A0652275D040D77
(0000000027.000000) vcan0 102#014432057869E055
(0000000027.000000) vcan0 103#02F89810A3E001DE
(0000000027.000000) vcan0 101#6906252860040EAE
(0000000027.100000) vcan0 102#01443705DC69F0B1
(0000000027.100000) vcan0 103#E6F7BD10A3F001C8
(0000000027.100000) vcan0 101#9806F82863040F31
(0000000027.200000) vcan0 102#01443C05406A0001
(0000000027.200000) vcan0 103#CCF7E610A3000195
(0000000027.200000) vcan0 101#C506E3296404003B
(0000000027.300000) vcan0 102#01444105A46A1042
(0000000027.300000) vcan0 103#B3F71111A41001FA
(0000000027.300000) vcan0 101#F206D72A6404015E
(0000000027.400000) vcan0 102#01444605086B20B5
(0000000027.400000) vcan0 103#9EF73E11A420010F
(0000000027.400000) vcan0 101#2007CA2B64040298
(0000000027.500000) vcan0 102#01444B056C6B3086
(0000000027.500000) vcan0 103#89F76A11A4300148
(0000000027.500000) vcan0 101#4C07BD2C640403C0
(0000000027.600000) vcan0 102#01445105D06B4070
(0000000027.600000) vcan0 103#76F79B11A54001E0
(0000000027.600000) vcan0 101#6907232C64040413
(0000000027.700000) vcan0 102#01445605346C50D9
(0000000027.700000) vcan0 103#61F7E411A55001AF
(0000000027.700000) vcan0 101#7F07FE2A640405F7
(0000000027.800000) vcan0 102#01445C05986C60CA
(0000000027.800000) vcan0 103#4CF73012A56001BA
(0000000027.800000) vcan0 101#9607D82964040655
(0000000027.900000) vcan0 102#01446105FC6C70D6
(0000000027.900000) vcan0 103#38F77C12A5700132
(0000000027.900000) vcan0 101#AC07B22864040796
(0000000028.000000) vcan0 102#01446705606D8056
(0000000028.000000) vcan0 103#2EF7A612A580014B
(0000000028.000000) vcan0 101#C907F128640508C5
(0000000028.100000) vcan0 102#01446D05C46D90CE
(0000000028.100000) vcan0 103#29F7C212A6900116
(0000000028.100000) vcan0 101#E807B42964050937
(0000000028.200000) vcan0 102#01447205286EA058
(0000000028.200000) vcan0 103#23F7DD12A6A0012D
(0000000028.200000) vcan0 101#0708762A64050A4B
(0000000028.300000) vcan0 102#014478058C6EB0C0
(0000000028.300000) vcan0 103#1BF71313A6B001AA
(0000000028.300000) vcan0 101#2B080F2B64050BB2
(0000000028.400000) vcan0 102#01447E05F06EC0BA
(0000000028.400000) vcan0 103#11F75013A5C00144
(0000000028.400000) vcan0 101#5308822B64050CB0
(0000000028.500000) vcan0 102#01448405546FD0FD
(0000000028.500000) vcan0 103#09F79013A5D00127
(0000000028.500000) vcan0 101#7108C32B64050D8D
(0000000028.600000) vcan0 102#01448A05B86FE03B
(0000000028.600000) vcan0 103#00F7CF13A4E001EB
(0000000028.600000) vcan0 101#8708D72B64050E8B
(0000000028.700000) vcan0 102#014491051C70F030
(0000000028.700000) vcan0 103#F8F60E14A4F00140
(0000000028.700000) vcan0 101#9C08EB2B64050FF7
(0000000028.800000) vcan0 102#01449705807000FC
(0000000028.800000) vcan0 103#F1F64C14A4000166
(0000000028.800000) vcan0 101#B508502C6405009D
(0000000028.900000) vcan0 102#01449D05E47010C4
(0000000028.900000) vcan0 103#E9F68A14A51001EB
(0000000028.900000) vcan0 101#CD08D42C640501CC
(0000000029.000000) vcan0 102#0144A30548712001
(0000000029.000000) vcan0 103#E2F6C914A520013E
(0000000029.000000) vcan0 101#E0086D2C64050273
(0000000029.100000) vcan0 102#0144AA05AC713047
(0000000029.100000) vcan0 103#DCF60915A530017C
(0000000029.100000) vcan0 101#F008AF2B6405034B
(0000000029.200000) vcan0 102#0144B00510724065
(0000000029.200000) vcan0 103#D5F64915A64001CB
(0000000029.200000) vcan0 101#FF08F12A640504BE
(0000000029.300000) vcan0 102#0144B705747250F5
(0000000029.300000) vcan0 103#CEF68715A6500159
(0000000029.300000) vcan0 101#0F09332A64050524
(0000000029.400000) vcan0 102#0144BD05D87260E6
(0000000029.400000) vcan0 103#C8F6C415A660016A
(0000000029.400000) vcan0 101#2309D329640606C4
(0000000029.500000) vcan0 102#0144C4053C73705C
(0000000029.500000) vcan0 103#C3F60016A6700158
(0000000029.500000) vcan0 101#4009342A64060743
(0000000029.600000) vcan0 102#0144CB05A073808D
(0000000029.600000) vcan0 103#BCF64216A780012A
(0000000029.600000) vcan0 101#5D09962A64060891
(0000000029.700000) vcan0 102#0144D205047490BC
(0000000029.700000) vcan0 103#B4F69816A6900132
(0000000029.700000) vcan0 101#7709072B640609B1
(0000000029.800000) vcan0 102#0144D8056874A00F
(0000000029.800000) vcan0 103#ABF60117A5A001D7
(0000000029.800000) vcan0 101#9009842B64060A95
(0000000029.900000) vcan0 102#0144DF05CC74B03F
(0000000029.900000) vcan0 103#A3F66317A4B001B4
(0000000029.900000) vcan0 101#A709BB2B64060B83
(0000000030.000000) vcan0 102#0144E6053075C09A
(0000000030.000000) vcan0 103#9EF6AC17A3C001E5
(0000000030.000000) vcan0 101#BB09B32B64060CA5
(0000000030.100000) vcan0 102#0144ED059475D068
(0000000030.100000) vcan0 103#9BF6D617A3D00176
(0000000030.100000) vcan0 101#CC09EA2B64060D52
(0000000030.200000) vcan0 102#0144F405F875E08B
(0000000030.200000) vcan0 103#99F6F517A2E001FD
(0000000030.200000) vcan0 101#DB095A2C64060EBA
(0000000030.300000) vcan0 102#0144FB055C76F018
(0000000030.300000) vcan0 103#96F62318A2F0014E
(0000000030.300000) vcan0 101#E909A72C64060FF0
(0000000030.400000) vcan0 102#01440306C07600EB
(0000000030.400000) vcan0 103#91F66818A10001F8
(0000000030.400000) vcan0 101#F509D42C64060047
(0000000030.500000) vcan0 102#01440A06247710E1
(0000000030.500000) vcan0 103#8CF6AF18A11001A4
(0000000030.500000) vcan0 101#010ACA2C640601A8
(0000000030.600000) vcan0 102#0144110688772076
(0000000030.600000) vcan0 103#88F6F918A0200193
(0000000030.600000) vcan0 101#0C0A4D2B640602B5
(0000000030.700000) vcan0 102#01441806EC7730F0
(0000000030.700000) vcan0 103#84F64219A03001C4
(0000000030.700000) vcan0 101#170AD02964060366
(0000000030.800000) vcan0 102#01441F06507840E3
(0000000030.800000) vcan0 103#80F68F19A0400192
(0000000030.800000) vcan0 101#220ADC2864060488
(0000000030.900000) vcan0 102#01442706B47850E0
(0000000030.900000) vcan0 103#7CF6EB19A25001DC
(0000000030.900000) vcan0 101#2E0A0229640605F7
(0000000031.000000) vcan0 102#01442E0618796001
(0000000031.000000) vcan0 103#77F6471AA360013D
(0000000031.000000) vcan0 101#3B0A28296406063F
(0000000031.100000) vcan0 102#014435067C7970BD
(0000000031.100000) vcan0 103#75F6811AA4700164
(0000000031.100000) vcan0 101#530A622964070731
(0000000031.200000) vcan0 102#01443D06E0798067
(0000000031.200000) vcan0 103#74F6B91AA4800183
(0000000031.200000) vcan0 101#6B0A9B2964070800
(0000000031.300000) vcan0 102#01444406447A9025
(0000000031.300000) vcan0 103#73F6F51AA49001E4
(0000000031.300000) vcan0 101#7F0ACF2964070909
(0000000031.400000) vcan0 102#01444C06A87AA082
(0000000031.400000) vcan0 103#72F63B1BA3A001C5
(0000000031.400000) vcan0 101#8F0AFA2964070A77
(0000000031.500000) vcan0 102#014453060C7BB067
(0000000031.500000) vcan0 103#70F68B1BA2B00148
(0000000031.500000) vcan0 101#990A132A64070BDA
(0000000031.600000) vcan0 102#01445B06707BC00B
(0000000031.600000) vcan0 103#6FF6DA1BA3C00112
(0000000031.600000) vcan0 101#A60A312A64070C16
(0000000031.700000) vcan0 102#01446206D47BD002
(0000000031.700000) vcan0 103#6FF6261CA4D00189
(0000000031.700000) vcan0 101#B90A572A64070DD1
(0000000031.800000) vcan0 102#01446A06387CE05C
(0000000031.800000) vcan0 103#70F6721CA5E001E6
(0000000031.800000) vcan0 101#C20A7D2A64070EA9
(0000000031.900000) vcan0 102#014472069C7CF0FE
(0000000031.900000) vcan0 103#72F6BF1CA4F00173
(0000000031.900000) vcan0 101#C90AA32A64070FC5
(0000000032.000000) vcan0 102#01447A06007D0068
(0000000032.000000) vcan0 103#75F60B1DA400013B
(0000000032.000000) vcan0 101#CF0AC92A64070050
(0000000032.100000) vcan0 102#01448106647D10A9
(0000000032.100000) vcan0 103#77F6581DA3100170
(0000000032.100000) vcan0 101#D50AEF2A6407013C
(0000000032.200000) vcan0 102#01448906C87D206E
(0000000032.200000) vcan0 103#7AF6A51DA320016C
(0000000032.200000) vcan0 101#DC0A152B64070239
(0000000032.300000) vcan0 102#014491062C7E3078
(0000000032.300000) vcan0 103#7EF6F31DA33001A1
(0000000032.300000) vcan0 101#E30A3D2B64070318
(0000000032.400000) vcan0 102#01449906907E40B4
(0000000032.400000) vcan0 103#83F6411EA34001A7
(0000000032.400000) vcan0 101#EA0A652B640704C2
(0000000032.500000) vcan0 102#0144A006F47E501D
(0000000032.500000) vcan0 103#88F6891EA35001ED
(0000000032.500000) vcan0 101#F20A8D2B640705BE
(0000000032.600000) vcan0 102#0144A806587F6096
(0000000032.600000) vcan0 103#8DF6D11EA360011E
(0000000032.600000) vcan0 101#F90AB42B6407069E
(0000000032.700000) vcan0 102#0144B006BC7F7054
(0000000032.700000) vcan0 103#98F64A1FA37001BE
(0000000032.700000) vcan0 101#FF0ACD2B640707FD
(0000000032.800000) vcan0 102#0144B806208080CF
(0000000032.800000) vcan0 103#A6F6D61FA480010E
(0000000032.800000) vcan0 101#040BE52B6407082A
(0000000032.900000) vcan0 102#0144C00684809033
(0000000032.900000) vcan0 103#B1F63F20A49001EA
(0000000032.900000) vcan0 101#0C0B0A2C64070910
(0000000033.000000) vcan0 102#0144C806E880A054
(0000000033.000000) vcan0 103#BCF69B20A4A0019A
(0000000033.000000) vcan0 101#140B2F2C64070A42
(0000000033.100000) vcan0 102#0144D0064C81B0BA
(0000000033.100000) vcan0 103#C5F6E520A4B0010F
(0000000033.100000) vcan0 101#180B1B2C64070B7E
(0000000033.200000) vcan0 102#0144D706B081C06A
(0000000033.200000) vcan0 103#CDF61D21A3C00105
(0000000033.200000) vcan0 101#180BD62B64070CCD
(0000000033.300000) vcan0 102#0144DF061482D0F2
(0000000033.300000) vcan0 103#D3F64921A3D001CD
(0000000033.300000) vcan0 101#1A0BC42B64070D50
(0000000033.400000) vcan0 102#0144E7067882E0BA
(0000000033.400000) vcan0 103#D9F67421A3E001E3
(0000000033.400000) vcan0 101#1D0BDE2B64070EB4
(0000000033.500000) vcan0 102#0144EF06DC82F0F6
(0000000033.500000) vcan0 103#E0F6A021A3F001E9
(0000000033.500000) vcan0 101#200BF92B64070F53
(0000000033.600000) vcan0 102#0144F7064083008E
(0000000033.600000) vcan0 103#EAF6DF21A30001AF
(0000000033.600000) vcan0 101#220B092C64070035
(0000000033.700000) vcan0 102#0144FF06A48310A2
(0000000033.700000) vcan0 103#FFF65622A3100112
(0000000033.700000) vcan0 101#220B072C6407013E
(0000000033.800000) vcan0 102#0144070708842092
(0000000033.800000) vcan0 103#18F7DE22A42001D5
(0000000033.800000) vcan0 101#220B112C64070296
(0000000033.900000) vcan0 102#01440F076C84307E
(0000000033.900000) vcan0 103#26F72A23A430010D
(0000000033.900000) vcan0 101#220B1E2C640703F7
(0000000034.000000) vcan0 102#01441707D084405C
(0000000034.000000) vcan0 103#33F76E23A4400181
(0000000034.000000) vcan0 101#220B2C2C6407045F
(0000000034.100000) vcan0 102#01441F073485503C
(0000000034.100000) vcan0 103#3DF79F23A45001CD
(0000000034.100000) vcan0 101#250B282C64070579
(0000000034.200000) vcan0 102#01442707988560D4
(0000000034.200000) vcan0 103#46F7BF23A46001F0
(0000000034.200000) vcan0 101#2C0B152C64070656
(0000000034.300000) vcan0 102#01442F07FC857038
(0000000034.300000) vcan0 103#53F7F823A470015D
(0000000034.300000) vcan0 101#2C0B0E2C5E07074B
(0000000034.400000) vcan0 102#01443707608680D8
(0000000034.400000) vcan0 103#65F74524A5800165
(0000000034.400000) vcan0 101#2C0B082C58070894
(0000000034.500000) vcan0 102#01443F07C4869094
(0000000034.500000) vcan0 103#78F79324A59001BD
(0000000034.500000) vcan0 101#2C0B022C52070925
(0000000034.600000) vcan0 102#014446072887A0A5
(0000000034.600000) vcan0 103#8AF7E024A5A00161
(0000000034.600000) vcan0 101#2C0BFD2B4D070A87
(0000000034.700000) vcan0 102#01444E078C87B0E9
(0000000034.700000) vcan0 103#9CF72D25A5B00136
(0000000034.700000) vcan0 101#020B2E2B39070B56
(0000000034.800000) vcan0 102#01445607F087C06B
(0000000034.800000) vcan0 103#AFF77825A4C0010D
(0000000034.800000) vcan0 101#B30AAE291B070C5E
(0000000034.900000) vcan0 102#01445D075488D03A
(0000000034.900000) vcan0 103#C0F7C025A4D0012F
(0000000034.900000) vcan0 101#610A462800170D84
(0000000035.000000) vcan0 102#01446307B888E0D3
(0000000035.000000) vcan0 103#D0F70526A4E0018E
(0000000035.000000) vcan0 101#FA097A2700170EC1
(0000000035.100000) vcan0 102#01446A071C89F0B9
(0000000035.100000) vcan0 103#E0F74A26A4F0010F
(0000000035.100000) vcan0 101#9309AF2600170FF2
(0000000035.200000) vcan0 102#0144700780890059
(0000000035.200000) vcan0 103#EFF78D26A5000189
(0000000035.200000) vcan0 101#2C09E4250017008E
(0000000035.300000) vcan0 102#01447607E48910A3
(0000000035.300000) vcan0 103#FEF7CF26A5100192
(0000000035.300000) vcan0 101#CA08F6250017012C
(0000000035.400000) vcan0 102#01447C07488A2064
(0000000035.400000) vcan0 103#0CF81127A520015C
(0000000035.400000) vcan0 101#6A08CE2600170227
(0000000035.500000) vcan0 102#01448107AC8A3004
(0000000035.500000) vcan0 103#1BF85227A53001FE
(0000000035.500000) vcan0 101#0508A0270016034E
(0000000035.600000) vcan0 102#01448707108B4092
(0000000035.600000) vcan0 103#25F87D27A54001BF
(0000000035.600000) vcan0 101#82074F280016049E
(0000000035.700000) vcan0 102#01448C07748B50C0
(0000000035.700000) vcan0 103#2FF8A627A55001F8
(0000000035.700000) vcan0 101#12079527001505D6
(0000000035.800000) vcan0 102#01449007D88B605C
(0000000035.800000) vcan0 103#3BF8D027A5600138
(0000000035.800000) vcan0 101#B3069A250015067F
(0000000035.900000) vcan0 102#014495073C8C7021
(0000000035.900000) vcan0 103#4CF80B28A57001F9
(0000000035.900000) vcan0 101#6806DA230014072B
(0000000036.000000) vcan0 102#01449907A08C804E
(0000000036.000000) vcan0 103#60F84B28A5800150
(0000000036.000000) vcan0 101#30064B220014081F
(0000000036.100000) vcan0 102#01449D07048D908C
(0000000036.100000) vcan0 103#6BF86A28A590017A
(0000000036.100000) vcan0 101#E0051421001409B9
(0000000036.200000) vcan0 102#0144A107688DA071
(0000000036.200000) vcan0 103#74F88128A4A00165
(0000000036.200000) vcan0 101#8D05E31F00140ACB
(0000000036.300000) vcan0 102#0144A407CC8DB095
(0000000036.300000) vcan0 103#7DF89728A4B001D1
(0000000036.300000) vcan0 101#4205C11E00140B7D
(0000000036.400000) vcan0 102#0144A807308EC058
(0000000036.400000) vcan0 103#88F8A928A4C0015E
(0000000036.400000) vcan0 101#2005011E00140C99
(0000000036.500000) vcan0 102#0144AB07948ED0DD
(0000000036.500000) vcan0 103#98F8C328A4D001AE
(0000000036.500000) vcan0 101#FF04411D00140D7D
(0000000036.600000) vcan0 102#0144AF07F88EE078
(0000000036.600000) vcan0 103#ABF8DF28A5E001FD
(0000000036.600000) vcan0 101#EB04DC1C00140E72
(0000000036.700000) vcan0 102#0144B2075C8FF049
(0000000036.700000) vcan0 103#C1F8F828A5F0015A
(0000000036.700000) vcan0 101#DB049A1C00140F47
(0000000036.800000) vcan0 102#0144B607C08F0051
(0000000036.800000) vcan0 103#D8F80D29A500015F
(0000000036.800000) vcan0 101#CB04571C00140051
(0000000036.900000) vcan0 102#0144B90724901061
(0000000036.900000) vcan0 103#F1F81F29A5100131
(0000000036.900000) vcan0 101#BF04371C040401C1
(0000000037.000000) vcan0 102#0144BC078890200E
(0000000037.000000) vcan0 103#0EF92D29A52001B8
(0000000037.000000) vcan0 101#B704331C0A040288
(0000000037.100000) vcan0 102#0144C007EC9030E7
(0000000037.100000) vcan0 103#2CF93B29A5300156
(0000000037.100000) vcan0 101#AE04371C10040301
(0000000037.200000) vcan0 102#0144C307509140AE
(0000000037.200000) vcan0 103#51F94529A5400135
(0000000037.200000) vcan0 101#9B046F1C1504043F
(0000000037.300000) vcan0 102#0144C607B491502A
(0000000037.300000) vcan0 103#78F94E29A55001A8
(0000000037.300000) vcan0 101#9604431D1F040555
(0000000037.400000) vcan0 102#0144C90718926032
(0000000037.400000) vcan0 103#9FF95729A5600104
(0000000037.400000) vcan0 101#9F04A21E2D04067B
(0000000037.500000) vcan0 102#0144CD077C92701C
(0000000037.500000) vcan0 103#C2F96129A570017F
(0000000037.500000) vcan0 101#A804EE1F3B0407E3
(0000000037.600000) vcan0 102#0144D007E09280F7
(0000000037.600000) vcan0 103#E4F96C29A4800106
(0000000037.600000) vcan0 101#B604B2203F040852
(0000000037.700000) vcan0 102#0144D40744939035
(0000000037.700000) vcan0 103#06FA7829A3900103
(0000000037.700000) vcan0 101#C4047721440409CB
(0000000037.800000) vcan0 102#0144D707A893A05B
(0000000037.800000) vcan0 103#27FA8529A3A001CB
(0000000037.800000) vcan0 101#DD04E82144040A6B
(0000000037.900000) vcan0 102#0144DB070C94B05B
(0000000037.900000) vcan0 103#48FA9629A3B001C2
(0000000037.900000) vcan0 101#0B05AD2139040BA8
(0000000038.000000) vcan0 102#0144DE077094C09F
(0000000038.000000) vcan0 103#69FAA829A3C001E2
(0000000038.000000) vcan0 101#390573212F040CCE
(0000000038.100000) vcan0 102#0144E207D494D049
(0000000038.100000) vcan0 103#89FABD29A3D00177
(0000000038.100000) vcan0 101#4305962130040D8F
(0000000038.200000) vcan0 102#0144E6073895E060
(0000000038.200000) vcan0 103#A9FAD229A2E00174
(0000000038.200000) vcan0 101#4A05C12132040E5E
(0000000038.300000) vcan0 102#0144EA079C95F099
(0000000038.300000) vcan0 103#C7FAEA29A1F001A4
(0000000038.300000) vcan0 101#5205EC2134040F44
(0000000038.400000) vcan0 102#0144EE0700960055
(0000000038.400000) vcan0 103#E4FA032AA1000114
(0000000038.400000) vcan0 101#5A051622360400A4
(0000000038.500000) vcan0 102#0144F207649610E2
(0000000038.500000) vcan0 103#FFFA1F2AA1100100
(0000000038.500000) vcan0 101#71058522420401DE
(0000000038.600000) vcan0 102#0144F607C89620E7
(0000000038.600000) vcan0 103#1AFB3B2AA0200158
(0000000038.600000) vcan0 101#8A05F8224D0402FB
(0000000038.700000) vcan0 102#0144FA072C973032
(0000000038.700000) vcan0 103#34FB5A2AA03001B6
(0000000038.700000) vcan0 101#A705902352040345
(0000000038.800000) vcan0 102#0144FE079097403C
(0000000038.800000) vcan0 103#4DFB7C2A9F400114
(0000000038.800000) vcan0 101#C4052B24570404F8
(0000000038.900000) vcan0 102#01440208F497509E
(0000000038.900000) vcan0 103#65FB9E2A9F5001B4
(0000000038.900000) vcan0 101#DD05F1245A0405A7
(0000000039.000000) vcan0 102#0144060858986038
(0000000039.000000) vcan0 103#7BFBC42A9F60011F
(0000000039.000000) vcan0 101#F405DC255E040692
(0000000039.100000) vcan0 102#01440B08BC9870CB
(0000000039.100000) vcan0 103#92FBE92A9F70015D
(0000000039.100000) vcan0 101#0A06C72662040752
(0000000039.200000) vcan0 102#01440F082099809F
(0000000039.200000) vcan0 103#ADFB252B9F8001D6
(0000000039.200000) vcan0 101#2906B12764040828
(0000000039.300000) vcan0 102#0144140884999083
(0000000039.300000) vcan0 103#CAFB692B9E90018F
(0000000039.300000) vcan0 101#5D0699286404098A
(0000000039.400000) vcan0 102#01441908E899A03B
(0000000039.400000) vcan0 103#E4FBA82B9EA001F6
(0000000039.400000) vcan0 101#9106802964040A07
(0000000039.500000) vcan0 102#01441E084C9AB0DF
(0000000039.500000) vcan0 103#ECFBC12B9EB001D3
(0000000039.500000) vcan0 101#C606672A64040B3F
(0000000039.600000) vcan0 102#01442308B09AC083
(0000000039.600000) vcan0 103#F5FBDA2B9DC00165
(0000000039.600000) vcan0 101#FA064F2B64040C2A
(0000000039.700000) vcan0 102#01442908149BD057
(0000000039.700000) vcan0 103#FEFBF82B9DD001F1
(0000000039.700000) vcan0 101#2A07D62A64040DFA
(0000000039.800000) vcan0 102#01442E08789BE04C
(0000000039.800000) vcan0 103#0CFC262C9EE001D0
(0000000039.800000) vcan0 101#5707322964040E41
(0000000039.900000) vcan0 102#01443308DC9BF031
(0000000039.900000) vcan0 103#1BFC592C9EF0019F
(0000000039.900000) vcan0 101#7E07862864040F98
(0000000040.000000) vcan0 102#01443908409C00C6
(0000000040.000000) vcan0 103#2AFC912C9F0001B2
(0000000040.000000) vcan0 101#9E07AE2864040085
(0000000040.100000) vcan0 102#01443E08A49C1096
(0000000040.100000) vcan0 103#39FCC82C9F100134
(0000000040.100000) vcan0 101#BF07D6286404016D
(0000000040.200000) vcan0 102#01444408089D2079
(0000000040.200000) vcan0 103#47FC012D9F2001C0
(0000000040.200000) vcan0 101#DF07FE286404024D
(0000000040.300000) vcan0 102#01444A086C9D30F4
(0000000040.300000) vcan0 103#5EFC5E2D9F30014F
(0000000040.300000) vcan0 101#06089E2964050353
(0000000040.400000) vcan0 102#01445008D09D4002
(0000000040.400000) vcan0 103#76FCBE2D9F4001A4
(0000000040.400000) vcan0 101#3308A42A640504D4
(0000000040.500000) vcan0 102#01445608349E50EC
(0000000040.500000) vcan0 103#82FCF12D9F500133
(0000000040.500000) vcan0 101#5308562B640505A2
(0000000040.600000) vcan0 102#01445C08989E60FF
(0000000040.600000) vcan0 103#8BFC132E9F60016E
(0000000040.600000) vcan0 101#6708BF2B6405065A
(0000000040.700000) vcan0 102#01446208FC9E705D
(0000000040.700000) vcan0 103#93FC362EA0700101
(0000000040.700000) vcan0 101#7C08282C640507F9
(0000000040.800000) vcan0 102#01446808609F801F
(0000000040.800000) vcan0 103#9BFC582EA0800179
(0000000040.800000) vcan0 101#9008912C640508F8
(0000000040.900000) vcan0 102#01446F08C49F902F
(0000000040.900000) vcan0 103#A8FC8E2EA09001CF
(0000000040.900000) vcan0 101#A508FB2C640509FA
(0000000041.000000) vcan0 102#0144750828A0A0D0
(0000000041.000000) vcan0 103#B8FCD42E9FA001CB
(0000000041.000000) vcan0 101#B9086A2D64050AE5
(0000000041.100000) vcan0 102#01447B088CA0B0FD
(0000000041.100000) vcan0 103#C9FC1A2F9FB0011D
(0000000041.100000) vcan0 101#CE08D92D64050BCC
(0000000041.200000) vcan0 102#01448208F0A0C068
(0000000041.200000) vcan0 103#D9FC652F9FC00143
(0000000041.200000) vcan0 101#E9087A2C64050CBF
(0000000041.300000) vcan0 102#0144880854A1D0BC
(0000000041.300000) vcan0 103#E8FCB02F9FD001F1
(0000000041.300000) vcan0 101#0609702A64050D62
(0000000041.400000) vcan0 102#01448E08B8A1E00D
(0000000041.400000) vcan0 103#F8FCFD2F9FE001BE
(0000000041.400000) vcan0 101#2109342964050E34
(0000000041.500000) vcan0 102#014495081CA2F0C5
(0000000041.500000) vcan0 103#07FD4A309FF001F3
(0000000041.500000) vcan0 101#34099D2964050F5B
(0000000041.600000) vcan0 102#01449C0880A20075
(0000000041.600000) vcan0 103#15FD97309F0001E8
(0000000041.600000) vcan0 101#4A09082A64060095
(0000000041.700000) vcan0 102#0144A208E4A210D7
(0000000041.700000) vcan0 103#22FDE5309E1001EF
(0000000041.700000) vcan0 101#63097A2A6406010C
(0000000041.800000) vcan0 102#0144A90848A320E2
(0000000041.800000) vcan0 103#30FD32319E2001E9
(0000000041.800000) vcan0 101#7C09ED2A64060208
(0000000041.900000) vcan0 102#0144B008ACA3304A
(0000000041.900000) vcan0 103#3BFD71319E300149
(0000000041.900000) vcan0 101#9B09432B640603E2
(0000000042.000000) vcan0 102#0144B70810A44003
(0000000042.000000) vcan0 103#43FDA3319E40013E
(0000000042.000000) vcan0 101#B209942B64060408
(0000000042.100000) vcan0 102#0144BE0874A45085
(0000000042.100000) vcan0 103#4AFDCD319F5001C2
(0000000042.100000) vcan0 101#B709E42B64060591
(0000000042.200000) vcan0 102#0144C508D8A4604C
(0000000042.200000) vcan0 103#51FDF9319F600115
(0000000042.200000) vcan0 101#C009262C640606AC
(0000000042.300000) vcan0 102#0144CC083CA57046
(0000000042.300000) vcan0 103#59FD2E329F700190
(0000000042.300000) vcan0 101#D4094C2C6406079C
(0000000042.400000) vcan0 102#0144D308A0A58079
(0000000042.400000) vcan0 103#63FD6F329F800139
(0000000042.400000) vcan0 101#E709722C6406082F
(0000000042.500000) vcan0 102#0144DA0804A6908B
(0000000042.500000) vcan0 103#6DFDB0329F9001A2
(0000000042.500000) vcan0 101#FB09982C640609EE
(0000000042.600000) vcan0 102#0144E10868A6A07D
(0000000042.600000) vcan0 103#77FDF5329FA001F2
(0000000042.600000) vcan0 101#090AB72B64060A59
(0000000042.700000) vcan0 102#0144E908CCA6B031
(0000000042.700000) vcan0 103#81FD3C339FB00100
(0000000042.700000) vcan0 101#150A752A64060BB3
(0000000042.800000) vcan0 102#0144F00830A7C055
(0000000042.800000) vcan0 103#8BFD83339FC00133
(0000000042.800000) vcan0 101#220A332964060CFC
(0000000042.900000) vcan0 102#0144F70894A7D065
(0000000042.900000) vcan0 103#95FDCA339FD001BD
(0000000042.900000) vcan0 101#2F0AB62864060D66
(0000000043.000000) vcan0 102#0144FE08F8A7E068
(0000000043.000000) vcan0 103#9EFD12349FE00198
(0000000043.000000) vcan0 101#3E0AE82864060EC2
(0000000043.100000) vcan0 102#014406095CA8F089
(0000000043.100000) vcan0 103#A7FD5B349FF001F7
(0000000043.100000) vcan0 101#4C0A1A2964060FB7
(0000000043.200000) vcan0 102#01440D09C0A800ED
(0000000043.200000) vcan0 103#AEFDA4349F000175
(0000000043.200000) vcan0 101#5B0A4729640700AE
(0000000043.300000) vcan0 102#0144150924A91063
(0000000043.300000) vcan0 103#B6FDEE349F100196
(0000000043.300000) vcan0 101#6A0A7429640701A9
(0000000043.400000) vcan0 102#01441C0988A920CE
(0000000043.400000) vcan0 103#BCFD38359F200191
(0000000043.400000) vcan0 101#6E0AA9296407021D
(0000000043.500000) vcan0 102#01442309ECA93006
(0000000043.500000) vcan0 103#C2FD82359F300183
(0000000043.500000) vcan0 101#710AE1296407030D
(0000000043.600000) vcan0 102#01442B0950AA401E
(0000000043.600000) vcan0 103#C6FDCD359F400122
(0000000043.600000) vcan0 101#850A0F2A6407044F
(0000000043.700000) vcan0 102#01443309B4AA50DC
(0000000043.700000) vcan0 103#CBFD18369F500147
(0000000043.700000) vcan0 101#970A3A2A640705A1
(0000000043.800000) vcan0 102#01443A0918AB603D
(0000000043.800000) vcan0 103#CEFD63369F6001CB
(0000000043.800000) vcan0 101#A00A4E2A640706DB
(0000000043.900000) vcan0 102#014442097CAB7061
(0000000043.900000) vcan0 103#D0FDAF369F7001B9
(0000000043.900000) vcan0 101#A80A622A64070717
(0000000044.000000) vcan0 102#01444909E0AB8005
(0000000044.000000) vcan0 103#D2FDFC369F80012E
(0000000044.000000) vcan0 101#AF0A882A640708FC
(0000000044.100000) vcan0 102#0144510944AC905E
(0000000044.100000) vcan0 103#D4FD48379E9001E2
(0000000044.100000) vcan0 101#B60AB82A640709F8
(0000000044.200000) vcan0 102#01445909A8ACA0F9
(0000000044.200000) vcan0 103#D6FD95379EA00163
(0000000044.200000) vcan0 101#C70AF92A64070A7F
(0000000044.300000) vcan0 102#014460090CADB0BC
(0000000044.300000) vcan0 103#D7FDE2379FB001BE
(0000000044.300000) vcan0 101#D80A392B64070BA6
(0000000044.400000) vcan0 102#0144680970ADC0D0
(0000000044.400000) vcan0 103#D7FD30389FC0017B
(0000000044.400000) vcan0 101#DC0A3C2B64070C43
(0000000044.500000) vcan0 102#01447009D4ADD072
(0000000044.500000) vcan0 103#D8FD7E389FD0011A
(0000000044.500000) vcan0 101#DC0A282B64070D05
(0000000044.600000) vcan0 102#0144780938AEE001
(0000000044.600000) vcan0 103#D8FDCB389FE00108
(0000000044.600000) vcan0 101#DD0A222B64070EDC
(0000000044.700000) vcan0 102#01447F099CAEF031
(0000000044.700000) vcan0 103#D6FD18399EF00143
(0000000044.700000) vcan0 101#E00A3A2B64070F68
(0000000044.800000) vcan0 102#0144870900AF0034
(0000000044.800000) vcan0 103#D4FD63399E000162
(0000000044.800000) vcan0 101#E30A522B6407001D
(0000000044.900000) vcan0 102#01448F0964AF10D8
(0000000044.900000) vcan0 103#D1FDB1399E100164
(0000000044.900000) vcan0 101#E60A652B64070110
(0000000045.000000) vcan0 102#01449709C8AF20F1
(0000000045.000000) vcan0 103#C8FD1B3A9E200168
(0000000045.000000) vcan0 101#E60A592B640702DA
(0000000045.100000) vcan0 102#01449E092CB030A0
(0000000045.100000) vcan0 103#BFFD863A9D3001B3
(0000000045.100000) vcan0 101#E60A4C2B640703F6
(0000000045.200000) vcan0 102#0144A60990B04043
(0000000045.200000) vcan0 103#B5FDE43A9D40017A
(0000000045.200000) vcan0 101#E80A3F2B640704AA
(0000000045.300000) vcan0 102#0144AE09F4B050AF
(0000000045.300000) vcan0 103#ACFD213B9D500106
(0000000045.300000) vcan0 101#EC0A302B640705A2
(0000000045.400000) vcan0 102#0144B60958B160CA
(0000000045.400000) vcan0 103#A4FD5E3B9D6001D9
(0000000045.400000) vcan0 101#F00A222B640706BD
(0000000045.500000) vcan0 102#0144BD09BCB17058
(0000000045.500000) vcan0 103#98FD943B9D70011F
(0000000045.500000) vcan0 101#EC0A232B640707C8
(0000000045.600000) vcan0 102#0144C50920B280E6
(0000000045.600000) vcan0 103#8CFDCC3B9D80012B
(0000000045.600000) vcan0 101#E90A252B64070826
(0000000045.700000) vcan0 102#0144CD0984B290AA
(0000000045.700000) vcan0 103#7CFD163C9D900133
(0000000045.700000) vcan0 101#E60A292B640709A5
(0000000045.800000) vcan0 102#0144D509E8B2A023
(0000000045.800000) vcan0 103#6AFD663C9DA00128
(0000000045.800000) vcan0 101#E90A382B64070A5A
(0000000045.900000) vcan0 102#0144DC094CB3B049
(0000000045.900000) vcan0 103#59FDB23C9DB0014A
(0000000045.900000) vcan0 101#EC0A472B64070BBF
(0000000046.000000) vcan0 102#0144E409B0B3C0CA
(0000000046.000000) vcan0 103#47FDFE3C9DC00184
(0000000046.000000) vcan0 101#F00A562B64070C6A
(0000000046.100000) vcan0 102#0144EC0914B4D07F
(0000000046.100000) vcan0 103#36FD4A3D9DD00141
(0000000046.100000) vcan0 101#F00A942A35070D75
(0000000046.200000) vcan0 102#0144F40978B4E0F6
(0000000046.200000) vcan0 103#24FD963D9DE00113
(0000000046.200000) vcan0 101#F00AC22903070ED5
(0000000046.300000) vcan0 102#0144FB09DCB4F0B1
(0000000046.300000) vcan0 103#13FDDD3D9DF001A9
(0000000046.300000) vcan0 101#AA0AC22800070FD6
(0000000046.400000) vcan0 102#0144030A40B5000E
(0000000046.400000) vcan0 103#03FD253E9D0001AC
(0000000046.400000) vcan0 101#600A012800070078
(0000000046.500000) vcan0 102#01440A0AA4B51048
(0000000046.500000) vcan0 103#F1FC713E9D100189
(0000000046.500000) vcan0 101#1A0AC127000701D1
(0000000046.600000) vcan0 102#0144100A08B62061
(0000000046.600000) vcan0 103#E1FCBA3E9D200184
(0000000046.600000) vcan0 101#A309A5270017029B
(0000000046.700000) vcan0 102#0144160A6CB6309B
(0000000046.700000) vcan0 103#D3FCF83E9D300117
(0000000046.700000) vcan0 101#CC08D12700170328
(0000000046.800000) vcan0 102#01441C0AD0B64083
(0000000046.800000) vcan0 103#C8FC2B3F9D4001C1
(0000000046.800000) vcan0 101#15081F28001704F0
(0000000046.900000) vcan0 102#0144210A34B75013
(0000000046.900000) vcan0 103#BFFC573F9D500181
(0000000046.900000) vcan0 101#9D07AC28001705E9
(0000000047.000000) vcan0 102#0144260A98B760A8
(0000000047.000000) vcan0 103#B5FC883F9D600106
(0000000047.000000) vcan0 101#24072C2900170688
(0000000047.100000) vcan0 102#01442B0AFCB7709B
(0000000047.100000) vcan0 103#A9FCC83F9D70012F
(0000000047.100000) vcan0 101#A6069329001707B8
(0000000047.200000) vcan0 102#01442F0A60B88020
(0000000047.200000) vcan0 103#9EFC0C409C800180
(0000000047.200000) vcan0 101#5806EC28001708FA
(0000000047.300000) vcan0 102#0144330AC4B89037
(0000000047.300000) vcan0 103#95FC48409C90012B
(0000000047.300000) vcan0 101#150611280015097C
(0000000047.400000) vcan0 102#0144370A28B9A01E
(0000000047.400000) vcan0 103#93FC66409CA001EE
(0000000047.400000) vcan0 101#BA05402800150A18
(0000000047.500000) vcan0 102#01443A0A8CB9B08D
(0000000047.500000) vcan0 103#92FC83409CB001A5
(0000000047.500000) vcan0 101#5E05702800150B53
(0000000047.600000) vcan0 102#01443E0AF0B9C023
(0000000047.600000) vcan0 103#91FCA1409CC0017C
(0000000047.600000) vcan0 101#0305A02800150CD3
(0000000047.700000) vcan0 102#0144410A54BAD000
(0000000047.700000) vcan0 103#91FCB8409CD0013B
(0000000047.700000) vcan0 101#C004E62700130D33
(0000000047.800000) vcan0 102#0144440AB8BAE00F
(0000000047.800000) vcan0 103#92FCCA409CE00179
(0000000047.800000) vcan0 101#92045F2600130E45
(0000000047.900000) vcan0 102#0144470A1CBBF0C6
(0000000047.900000) vcan0 103#94FCDC409CF00191
(0000000047.900000) vcan0 101#6304C32400120FC8
(0000000048.000000) vcan0 102#01444A0A80BB00C3
(0000000048.000000) vcan0 103#9EFCF7409C000113
(0000000048.000000) vcan0 101#32049722001200E4
(0000000048.100000) vcan0 102#01444D0AE4BB1053
(0000000048.100000) vcan0 103#ADFC15419B100128
(0000000048.100000) vcan0 101#FF036B20001201D9
(0000000048.200000) vcan0 102#01444F0A48BC20CE
(0000000048.200000) vcan0 103#BCFC34419B2001A6
(0000000048.200000) vcan0 101#CD033F1E001202CC
(0000000048.300000) vcan0 102#0144510AACBC306D
(0000000048.300000) vcan0 103#CBFC45419B30014E
(0000000048.300000) vcan0 101#9803C11C00120320
(0000000048.400000) vcan0 102#0144540A10BD4045
(0000000048.400000) vcan0 103#D9FC51419C4001B7
(0000000048.400000) vcan0 101#63034F1B0012042E
(0000000048.500000) vcan0 102#0144560A74BD500A
(0000000048.500000) vcan0 103#E7FC5E419C5001A8
(0000000048.500000) vcan0 101#2E03DE190012058B
(0000000048.600000) vcan0 102#0144580AD8BD60AC
(0000000048.600000) vcan0 103#F6FC65419C60016B
(0000000048.600000) vcan0 101#0E03B1180012067C
(0000000048.700000) vcan0 102#01445A0A3CBE70F7
(0000000048.700000) vcan0 103#07FD6B419C70017B
(0000000048.700000) vcan0 101#F4029E1700120733
(0000000048.800000) vcan0 102#01445C0AA0BE803B
(0000000048.800000) vcan0 103#1AFD71419C80018B
(0000000048.800000) vcan0 101#DB028B1600120817
(0000000048.900000) vcan0 102#01445E0A04BF9098
(0000000048.900000) vcan0 103#2EFD76419C90018B
(0000000048.900000) vcan0 101#C4028A150012093F
(0000000049.000000) vcan0 102#0144600A68BFA0B1
(0000000049.000000) vcan0 103#43FD77419CA00177
(0000000049.000000) vcan0 101#B502031500120A73
(0000000049.100000) vcan0 102#0144620ACCBFB05E
(0000000049.100000) vcan0 103#58FD78419CB00133
(0000000049.100000) vcan0 101#A502801400020B63
(0000000049.200000) vcan0 102#0144630A30C0C067
(0000000049.200000) vcan0 103#66FD75419CC00167
(0000000049.200000) vcan0 101#8E02201400020C88
(0000000049.300000) vcan0 102#0144650A94C0D03D
(0000000049.300000) vcan0 103#73FD73419BD001B5
(0000000049.300000) vcan0 101#7802BF1301020D25
(0000000049.400000) vcan0 102#0144660AF8C0E093
(0000000049.400000) vcan0 103#80FD6F419BE00116
(0000000049.400000) vcan0 101#61025F1301020E49
(0000000049.500000) vcan0 102#0144680A5CC1F0F2
(0000000049.500000) vcan0 103#8EFD69419BF001C2
(0000000049.500000) vcan0 101#4A02FF1202020FFD
(0000000049.600000) vcan0 102#01446A0AC0C1008B
(0000000049.600000) vcan0 103#9CFD61419B000154
(0000000049.600000) vcan0 101#3A025E13050200D1
(0000000049.700000) vcan0 102#01446B0A24C2106E
(0000000049.700000) vcan0 103#ABFD59419B1001E0
(0000000049.700000) vcan0 101#2B02041409020104
(0000000049.800000) vcan0 102#01446D0A88C220BF
(0000000049.800000) vcan0 103#B7FD4F419B2001AC
(0000000049.800000) vcan0 101#1D02AA140D0202D4
(0000000049.900000) vcan0 102#01446E0AECC2309A
(0000000049.900000) vcan0 103#C3FD44419B3001B0
(0000000049.900000) vcan0 101#27020D150F020300
(0000000050.000000) vcan0 102#0144700A50C34095
(0000000050.000000) vcan0 103#CDFD38419B4001E8
(0000000050.000000) vcan0 101#34026A15120204C5
(0000000050.100000) vcan0 102#0144710AB4C350A4
(0000000050.100000) vcan0 103#D8FD2A419B5001EB
(0000000050.100000) vcan0 101#4102C71515020524
(0000000050.200000) vcan0 102#0144730A18C46039
(0000000050.200000) vcan0 103#E6FD14419B6001C4
(0000000050.200000) vcan0 101#56027D16160206AD
(0000000050.300000) vcan0 102#0144750A7CC470C3
(0000000050.300000) vcan0 103#F5FDFD409B7001D3
(0000000050.300000) vcan0 101#6F025317180207AA
(0000000050.400000) vcan0 102#0144770AE0C480BA
(0000000050.400000) vcan0 103#01FEE9409B800160
(0000000050.400000) vcan0 101#7F0210181C0208E7
(0000000050.500000) vcan0 102#0144780A44C590B1
(0000000050.500000) vcan0 103#09FED9409B900129
(0000000050.500000) vcan0 101#8C02C41820020971
(0000000050.600000) vcan0 102#01447A0AA8C5A0B5
(0000000050.600000) vcan0 103#0DFECE409CA001EE
(0000000050.600000) vcan0 101#9802861924020A56
(0000000050.700000) vcan0 102#01447C0A0CC6B03B
(0000000050.700000) vcan0 103#10FEC6409CB00172
(0000000050.700000) vcan0 101#A9028C1A27020B55
(0000000050.800000) vcan0 102#01447E0A70C6C0F4
(0000000050.800000) vcan0 103#11FEC4409CC001D0
(0000000050.800000) vcan0 101#BE02CF1B2B020C87
(0000000050.900000) vcan0 102#0144800AD4C6D04A
(0000000050.900000) vcan0 103#12FEC3409BD00102
(0000000050.900000) vcan0 101#D702051D2E020D5B
(0000000051.000000) vcan0 102#0144820A38C7E002
(0000000051.000000) vcan0 103#15FEBA409BE001E0
(0000000051.000000) vcan0 101#0903E81D30020E39
(0000000051.100000) vcan0 102#0144850A9CC7F032
(0000000051.100000) vcan0 103#1BFEAD409BF001B0
(0000000051.100000) vcan0 101#3003241F35020FAD
(0000000051.200000) vcan0 102#0144870A00C800E8
(0000000051.200000) vcan0 103#23FE96409B0001B0
(0000000051.200000) vcan0 101#4F03AF203A020029
(0000000051.300000) vcan0 102#01448A0A64C810DB
(0000000051.300000) vcan0 103#2AFE7F409B1001EB
(0000000051.300000) vcan0 101#6D033B22400201F9
(0000000051.400000) vcan0 102#01448C0AC8C8200A
(0000000051.400000) vcan0 103#32FE66409B2001B2
(0000000051.400000) vcan0 101#8C03C62346020230
(0000000051.500000) vcan0 102#01448F0A2CC930A3
(0000000051.500000) vcan0 103#3AFE4D409B3001DC
(0000000051.500000) vcan0 101#BD036A2549020369
(0000000051.600000) vcan0 102#0144920A90C9405E
(0000000051.600000) vcan0 103#41FE32409B400106
(0000000051.600000) vcan0 101#E503B3264B020479
(0000000051.700000) vcan0 102#0144950AF4C950CE
(0000000051.700000) vcan0 103#47FE17409B50017F
(0000000051.700000) vcan0 101#FA0342275002057D
(0000000051.800000) vcan0 102#0144980A58CA6002
(0000000051.800000) vcan0 103#4DFEFB3F9B6001FA
(0000000051.800000) vcan0 101#0F04D1275402067D
(0000000051.900000) vcan0 102#01449B0ABCCA70E7
(0000000051.900000) vcan0 103#52FEDD3F9B70010B
(0000000051.900000) vcan0 101#56049F275702078D
(0000000052.000000) vcan0 102#01449E0A20CB80D9
(0000000052.000000) vcan0 103#58FEBE3F9B800161
(0000000052.000000) vcan0 101#A1045E275A020842
(0000000052.100000) vcan0 102#0144A20A84CB900F
(0000000052.100000) vcan0 103#5DFE9B3F9B9001FF
(0000000052.100000) vcan0 101#DA0463285D020907
(0000000052.200000) vcan0 102#0144A60AE8CBA0AA
(0000000052.200000) vcan0 103#62FE783F9BA00177
(0000000052.200000) vcan0 101#04058B2A5F020A8F
(0000000052.300000) vcan0 102#0144A90A4CCCB014
(0000000052.300000) vcan0 103#65FE533F9BB00145
(0000000052.300000) vcan0 101#2E05632C60030B14
(0000000052.400000) vcan0 102#0144AD0AB0CCC07A
(0000000052.400000) vcan0 103#69FE2C3F9BC00119
(0000000052.400000) vcan0 101#5B05302C63030C38
(0000000052.500000) vcan0 102#0144B10A14CDD021
(0000000052.500000) vcan0 103#6CFE053F9BD00145
(0000000052.500000) vcan0 101#8805C42B64030D5C
(0000000052.600000) vcan0 102#0144B50A78CDE084
(0000000052.600000) vcan0 103#6FFEDC3E9BE001B1
(0000000052.600000) vcan0 101#B505E32964030EA6
(0000000052.700000) vcan0 102#0144BA0ADCCDF0C3
(0000000052.700000) vcan0 103#72FEB23E9BF00112
(0000000052.700000) vcan0 101#E205442864040FDF
(0000000052.800000) vcan0 102#0144BE0A40CE000F
(0000000052.800000) vcan0 103#75FE863E9B0001E4
(0000000052.800000) vcan0 101#110663286404002A
(0000000052.900000) vcan0 102#0144C30AA4CE104C
(0000000052.900000) vcan0 103#7AFE593E9B100122
(0000000052.900000) vcan0 101#4006832864040170
(0000000053.000000) vcan0 102#0144C70A08CF2005
(0000000053.000000) vcan0 103#7FFE2C3E9B2001B8
(0000000053.000000) vcan0 101#6F06A228640402CF
(0000000053.100000) vcan0 102#0144CC0A6CCF3057
(0000000053.100000) vcan0 103#85FEFC3D9B300125
(0000000053.100000) vcan0 101#9906A82964040396
(0000000053.200000) vcan0 102#0144D10AD0CF40AA
(0000000053.200000) vcan0 103#8BFECC3D9B400120
(0000000053.200000) vcan0 101#C406BF2A6404041B
(0000000053.300000) vcan0 102#0144D60A34D050ED
(0000000053.300000) vcan0 103#9BFE803D9B500170
(0000000053.300000) vcan0 101#EF06D72B640405E8
(0000000053.400000) vcan0 102#0144DC0A98D060FE
(0000000053.400000) vcan0 103#ABFE313D9A60018E
(0000000053.400000) vcan0 101#1907EE2C64040635
(0000000053.500000) vcan0 102#0144E10AFCD070E2
(0000000053.500000) vcan0 103#B7FE003D9A70017D
(0000000053.500000) vcan0 101#4B07FF2C64040771
(0000000053.600000) vcan0 102#0144E60A60D18008
(0000000053.600000) vcan0 103#C1FEDB3C9A800142
(0000000053.600000) vcan0 101#7707A02C640408AA
(0000000053.700000) vcan0 102#0144EC0AC4D19090
(0000000053.700000) vcan0 103#CAFEC13C99900102
(0000000053.700000) vcan0 101#9607872B640409C4
(0000000053.800000) vcan0 102#0144F10A28D2A0D2
(0000000053.800000) vcan0 103#D7FE9D3C99A0012F
(0000000053.800000) vcan0 101#B5076F2A64040AFC
(0000000053.900000) vcan0 102#0144F70A8CD2B088
(0000000053.900000) vcan0 103#E7FE6D3C98B00151
(0000000053.900000) vcan0 101#D707822964050BC9
(0000000054.000000) vcan0 102#0144FD0AF0D2C030
(0000000054.000000) vcan0 103#FDFE313C97C0019E
(0000000054.000000) vcan0 101#09089B2964050C6B
(0000000054.100000) vcan0 102#0144030B54D3D05F
(0000000054.100000) vcan0 103#17FFED3B96D001FF
(0000000054.100000) vcan0 101#2A08322A64050DBB
(0000000054.200000) vcan0 102#0144080BB8D3E046
(0000000054.200000) vcan0 103#34FFA63B95E0016C
(0000000054.200000) vcan0 101#3D083A2B64050E41
(0000000054.300000) vcan0 102#01440E0B1CD4F0E5
(0000000054.300000) vcan0 103#4BFF6D3B94F00176
(0000000054.300000) vcan0 101#5C08CA2B64050F23
(0000000054.400000) vcan0 102#0144150B80D4006F
(0000000054.400000) vcan0 103#5EFF413B93000190
(0000000054.400000) vcan0 101#7C08512C64050007
(0000000054.500000) vcan0 102#01441B0BE4D410E2
(0000000054.500000) vcan0 103#71FF143B931001B9
(0000000054.500000) vcan0 101#9C08B22C640501C9
(0000000054.600000) vcan0 102#0144210B48D52092
(0000000054.600000) vcan0 103#87FFE03A932001B9
(0000000054.600000) vcan0 101#B708152C6405025D
(0000000054.700000) vcan0 102#0144280BACD530D4
(0000000054.700000) vcan0 103#9FFFA63A92300117
(0000000054.700000) vcan0 101#D308772B640503E6
(0000000054.800000) vcan0 102#01442E0B10D640DA
(0000000054.800000) vcan0 103#B8FF6C3A924001C2
(0000000054.800000) vcan0 101#EE08D92A640504EC
(0000000054.900000) vcan0 102#0144340B74D6500C
(0000000054.900000) vcan0 103#D2FF2E3A925001E4
(0000000054.900000) vcan0 101#0909492A640505E4
(0000000055.000000) vcan0 102#01443B0BD8D660C0
(0000000055.000000) vcan0 103#EDFFED3992600117
(0000000055.000000) vcan0 101#2209162A64050694
(0000000055.100000) vcan0 102#0144420B3CD7707A
(0000000055.100000) vcan0 103#0800AD3992700111
(0000000055.100000) vcan0 101#3909F529640607A8
(0000000055.200000) vcan0 102#0144480BA0D78074
(0000000055.200000) vcan0 103#200075399280016B
(0000000055.200000) vcan0 101#46094D2A64060886
(0000000055.300000) vcan0 102#01444F0B04D890E7
(0000000055.300000) vcan0 103#3F002E3992900182
(0000000055.300000) vcan0 101#5A09932A640609DD
(0000000055.400000) vcan0 102#0144560B68D8A004
(0000000055.400000) vcan0 103#6C00C53892A001EA
(0000000055.400000) vcan0 101#7309C72A64060ADE
(0000000055.500000) vcan0 102#01445C0BCCD8B09C
(0000000055.500000) vcan0 103#9300693892B0018B
(0000000055.500000) vcan0 101#8B09FC2A64060B5E
(0000000055.600000) vcan0 102#0144630B30D9C058
(0000000055.600000) vcan0 103#A300433892C00114
(0000000055.600000) vcan0 101#A4095B2B64060C4A
(0000000055.700000) vcan0 102#01446A0B94D9D07E
(0000000055.700000) vcan0 103#AF00293892D001E6
(0000000055.700000) vcan0 101#BD09CA2B64060DC6
(0000000055.800000) vcan0 102#0144720BF8D9E0F7
(0000000055.800000) vcan0 103#C100FF3792E001CC
(0000000055.800000) vcan0 101#D609392C64060EBC
(0000000055.900000) vcan0 102#0144790B5CDAF0D1
(0000000055.900000) vcan0 103#E300B23792F0019A
(0000000055.900000) vcan0 101#EF09A82C64060F5F
(0000000056.000000) vcan0 102#0144800BC0DA00F2
(0000000056.000000) vcan0 103#0B01563792000134
(0000000056.000000) vcan0 101#050ADD2C64060039
(0000000056.100000) vcan0 102#0144870B24DB10EE
(0000000056.100000) vcan0 103#3601F43691100197
(0000000056.100000) vcan0 101#190AFC2C6406018D
(0000000056.200000) vcan0 102#01448E0B88DB2043
(0000000056.200000) vcan0 103#5401AE369120018F
(0000000056.200000) vcan0 101#250A692C640602D5
(0000000056.300000) vcan0 102#0144960BECDB3041
(0000000056.300000) vcan0 103#6B017A3691300156
(0000000056.300000) vcan0 101#2E0A962B640603E6
(0000000056.400000) vcan0 102#01449D0B50DC40CA
(0000000056.400000) vcan0 103#820146369140010F
(0000000056.400000) vcan0 101#370AC32A640604B0
(0000000056.500000) vcan0 102#0144A40BB4DC50A3
(0000000056.500000) vcan0 103#99011236915001F3
(0000000056.500000) vcan0 101#400AF02964060500
(0000000056.600000) vcan0 102#0144AC0B18DD6028
(0000000056.600000) vcan0 103#B501D235916001E0
(0000000056.600000) vcan0 101#4D0A722964060636
(0000000056.700000) vcan0 102#0144B30B7CDD7021
(0000000056.700000) vcan0 103#D2018E3590700157
(0000000056.700000) vcan0 101#610AA02964060779
(0000000056.800000) vcan0 102#0144BA0BE0DD8091
(0000000056.800000) vcan0 103#EF01493590800132
(0000000056.800000) vcan0 101#730ACF29640708AF
(0000000056.900000) vcan0 102#0144C20B44DE90B9
(0000000056.900000) vcan0 103#0C0204358F900112
(0000000056.900000) vcan0 101#820A002A6407093C
(0000000057.000000) vcan0 102#0144CA0BA8DEA01E
(0000000057.000000) vcan0 103#2902BE348EA00135
(0000000057.000000) vcan0 101#900A312A64070A5D
(0000000057.100000) vcan0 102#0144D10B0CDFB04E
(0000000057.100000) vcan0 103#460279348DB00157
(0000000057.100000) vcan0 101#A00A622A64070B59
(0000000057.200000) vcan0 102#0144D90B70DFC022
(0000000057.200000) vcan0 103#640234348DC0019E
(0000000057.200000) vcan0 101#AE0A912A64070C26
(0000000057.300000) vcan0 102#0144E10BD4DFD041
(0000000057.300000) vcan0 103#8102ED338BD001B0
(0000000057.300000) vcan0 101#B90ABD2A64070D0F
(0000000057.400000) vcan0 102#0144E80B38E0E0EE
(0000000057.400000) vcan0 103#AD02833389E001EE
(0000000057.400000) vcan0 101#C40AE82A64070E68
(0000000057.500000) vcan0 102#0144F00B9CE0F04C
(0000000057.500000) vcan0 103#DA02153387F00179
(0000000057.500000) vcan0 101#CF0A142B64070F8C
(0000000057.600000) vcan0 102#0144F80B00E100DA
(0000000057.600000) vcan0 103#FC02C032860001B8
(0000000057.600000) vcan0 101#D20A332B640700A2
(0000000057.700000) vcan0 102#0144FF0B64E1104A
(0000000057.700000) vcan0 103#18037A3285100110
(0000000057.700000) vcan0 101#D40A4D2B640701CA
(0000000057.800000) vcan0 102#0144070CC8E120EA
(0000000057.800000) vcan0 103#2603533284200155
(0000000057.800000) vcan0 101#E30A6A2B6407027F
(0000000057.900000) vcan0 102#01440F0C2CE23012
(0000000057.900000) vcan0 103#36032B328430019F
(0000000057.900000) vcan0 101#F10A872B640703B4
(0000000058.000000) vcan0 102#0144170C90E24030
(0000000058.000000) vcan0 103#4C03F1318440019F
(0000000058.000000) vcan0 101#FC0AA82B640704BC
(0000000058.100000) vcan0 102#01441F0CF4E250DC
(0000000058.100000) vcan0 103#6703AD31845001C2
(0000000058.100000) vcan0 101#070BC92B6407054F
(0000000058.200000) vcan0 102#0144270C58E36078
(0000000058.200000) vcan0 103#820363318460018D
(0000000058.200000) vcan0 101#100BE72B64070688
(0000000058.300000) vcan0 102#01442E0CBCE3703E
(0000000058.300000) vcan0 103#9C03193183700118
(0000000058.300000) vcan0 101#150B002C64070723
(0000000058.400000) vcan0 102#0144360C20E480F3
(0000000058.400000) vcan0 103#B703CF308380010E
(0000000058.400000) vcan0 101#1B0B1D2C640708DF
(0000000058.500000) vcan0 102#01443E0C84E490BF
(0000000058.500000) vcan0 103#D0038430839001D3
(0000000058.500000) vcan0 101#240B3C2C640709E3
(0000000058.600000) vcan0 102#0144460CE8E4A068
(0000000058.600000) vcan0 103#E903383083A00185
(0000000058.600000) vcan0 101#2D0B5C2C64070A15
(0000000058.700000) vcan0 102#01444E0C4CE5B068
(0000000058.700000) vcan0 103#0204EC2F83B00171
(0000000058.700000) vcan0 101#360B7C2C64070B45
(0000000058.800000) vcan0 102#0144560CB0E5C02A
(0000000058.800000) vcan0 103#1A049F2F83C0013F
(0000000058.800000) vcan0 101#3F0B9C2C64070CE4
(0000000058.900000) vcan0 102#01445E0C14E6D0B2
(0000000058.900000) vcan0 103#3204532F82D001C7
(0000000058.900000) vcan0 101#440BA02C64070D29
(0000000059.000000) vcan0 102#0144660C78E6E0FA
(0000000059.000000) vcan0 103#4A04032F82E001AD
(0000000059.000000) vcan0 101#480BA22C64070E61
(0000000059.100000) vcan0 102#01446E0CDCE6F0B6
(0000000059.100000) vcan0 103#6404A52E82F00169
(0000000059.100000) vcan0 101#4D0BF72B64070F12
(0000000059.200000) vcan0 102#0144770C40E700A4
(0000000059.200000) vcan0 103#7F04462E820001C4
(0000000059.200000) vcan0 101#540BB22A64070042
(0000000059.300000) vcan0 102#01447F0CA4E71088
(0000000059.300000) vcan0 103#9604F42D8210018D
(0000000059.300000) vcan0 101#5A0B6D29640701CA
(0000000059.400000) vcan0 102#0144870C08E8207F
(0000000059.400000) vcan0 103#A804B32D8220010F
(0000000059.400000) vcan0 101#5E0B9C28640702E0
(0000000059.500000) vcan0 102#01448F0C6CE83093
(0000000059.500000) vcan0 103#B804792D8230011D
(0000000059.500000) vcan0 101#5E0BB82864070389
(0000000059.600000) vcan0 102#0144970CD0E840B1
(0000000059.600000) vcan0 103#CA04322D824001D2
(0000000059.600000) vcan0 101#650BD5286408046C
(0000000059.700000) vcan0 102#01449F0C34E950D1
(0000000059.700000) vcan0 103#DE04E32C82500113
(0000000059.700000) vcan0 101#6F0BF228640805D3
(0000000059.800000) vcan0 102#0144A70C98E96039
(0000000059.800000) vcan0 103#F204942C826001BD
(0000000059.800000) vcan0 101#790B0E2964080652
(0000000059.900000) vcan0 102#0144B00CFCE97047
(0000000059.900000) vcan0 103#0605442C827001DD
(0000000059.900000) vcan0 101#830B2B2964080790
(0000000060.000000) vcan0 102#0144B80C60EA8049
(0000000060.000000) vcan0 103#1A05F42B81800149
(0000000060.000000) vcan0 101#8B0B40296408086E
(0000000060.100000) vcan0 102#0144C00CC4EA90B5
(0000000060.100000) vcan0 103#2E05A52B81900159
(0000000060.100000) vcan0 101#910B5429640809F9
(0000000060.200000) vcan0 102#0144C80C28EBA05E
(0000000060.200000) vcan0 103#4105552B81A001E6
(0000000060.200000) vcan0 101#970B682964080AE0
(0000000060.300000) vcan0 102#0144D10C8CEBB096
(0000000060.300000) vcan0 103#5405052B81B001AE
(0000000060.300000) vcan0 101#9F0B7E2964080BA0
(0000000060.400000) vcan0 102#0144D90CF0EBC0FA
(0000000060.400000) vcan0 103#6805B42A81C00113
(0000000060.400000) vcan0 101#A70B962964080CFD
(0000000060.500000) vcan0 102#0144E10C54ECD060
(0000000060.500000) vcan0 103#7D05592A81D001FF
(0000000060.500000) vcan0 101#AE0BAD2964080D89
(0000000060.600000) vcan0 102#0144E90CB8ECE0C7
(0000000060.600000) vcan0 103#9A05DE2980E001BD
(0000000060.600000) vcan0 101#B20BBB2964080E23
(0000000060.700000) vcan0 102#0144F20C1CEDF097
(0000000060.700000) vcan0 103#B605632980F00179
(0000000060.700000) vcan0 101#B50BC92964080FD4
(0000000060.800000) vcan0 102#0144FA0C80ED004D
(0000000060.800000) vcan0 103#CA0511298000014C
(0000000060.800000) vcan0 101#B80BD6296408001B
(0000000060.900000) vcan0 102#0144020DE4ED10AF
(0000000060.900000) vcan0 103#D505E328801001C7
(0000000060.900000) vcan0 101#B80BD529640801B8
(0000000061.000000) vcan0 102#01440B0D48EE20D6
(0000000061.000000) vcan0 103#DF05B728802001AA
(0000000061.000000) vcan0 101#B80BD429640802F5
(0000000061.100000) vcan0 102#0144130DACEE3014
(0000000061.100000) vcan0 103#ED057B288030010C
(0000000061.100000) vcan0 101#BC0BF22964080321
(0000000061.200000) vcan0 102#01441C0D10EF409F
(0000000061.200000) vcan0 103#00062928804001BE
(0000000061.200000) vcan0 101#C30B2C2A640804D8
(0000000061.300000) vcan0 102#0144240D74EF505C
(0000000061.300000) vcan0 103#1306D727805001B9
(0000000061.300000) vcan0 101#CA0B662A64080576
(0000000061.400000) vcan0 102#01442C0DD8EF609B
(0000000061.400000) vcan0 103#260685278060013F
(0000000061.400000) vcan0 101#CF0B642A640806B1
(0000000061.500000) vcan0 102#0144350D3CF07024
(0000000061.500000) vcan0 103#3A0634277F7001E1
(0000000061.500000) vcan0 101#D20B4A2A64080724
(0000000061.600000) vcan0 102#01443D0DA0F080FE
(0000000061.600000) vcan0 103#4E06DF267F80014B
(0000000061.600000) vcan0 101#D60B322A64080831
(0000000061.700000) vcan0 102#0144460D04F190F0
(0000000061.700000) vcan0 103#620685267E900176
(0000000061.700000) vcan0 101#DB0B472A640809A5
(0000000061.800000) vcan0 102#01444E0D68F1A097
(0000000061.800000) vcan0 103#77062C267EA001C5
(0000000061.800000) vcan0 101#E00B602A64080AAB
(0000000061.900000) vcan0 102#0144570DCCF1B05F
(0000000061.900000) vcan0 103#8A06DA257FB001F9
(0000000061.900000) vcan0 101#E00B682A64080BC1
(0000000062.000000) vcan0 102#01445F0D30F2C027
(0000000062.000000) vcan0 103#9D0688257FC00140
(0000000062.000000) vcan0 101#E00B6F2A64080C99
(0000000062.100000) vcan0 102#0144670D94F2D044
(0000000062.100000) vcan0 103#B00636257FD00167
(0000000062.100000) vcan0 101#E50B7D2A64080D8A
(0000000062.200000) vcan0 102#0144700DF8F2E0B1
(0000000062.200000) vcan0 103#C206E9247FE001A7
(0000000062.200000) vcan0 101#E90B8D2A64080E85
(0000000062.300000) vcan0 102#0144780D5CF3F0B1
(0000000062.300000) vcan0 103#D306A0247EF001FA
(0000000062.300000) vcan0 101#EE0B9C2A64080F92
(0000000062.400000) vcan0 102#0144810DC0F30092
(0000000062.400000) vcan0 103#E70650247E000134
(0000000062.400000) vcan0 101#F40BAC2A640800D7
(0000000062.500000) vcan0 102#01448A0D24F410F9
(0000000062.500000) vcan0 103#FA06FB237E100100
(0000000062.500000) vcan0 101#FC0BB92A64080129
(0000000062.600000) vcan0 102#0144920D88F420D0
(0000000062.600000) vcan0 103#0D07A7237E200113
(0000000062.600000) vcan0 101#040CC72A6408021C
(0000000062.700000) vcan0 102#01449B0DECF43056
(0000000062.700000) vcan0 103#200754237E300103
(0000000062.700000) vcan0 101#080CCE2A640803A7
(0000000062.800000) vcan0 102#0144A30D50F540F9
(0000000062.800000) vcan0 103#330701237E4001D8
(0000000062.800000) vcan0 101#080CD02A6408040C
(0000000062.900000) vcan0 102#0144AC0DB4F550DE
(0000000062.900000) vcan0 103#4607AE227E500153
(0000000062.900000) vcan0 101#090CD42A640805F9
(0000000063.000000) vcan0 102#0144B40D18F66023
(0000000063.000000) vcan0 103#5A075A227E6001B6
(0000000063.000000) vcan0 101#0C0CDB2A64080696
(0000000063.100000) vcan0 102#0144BD0D7CF670A5
(0000000063.100000) vcan0 103#6D0706227E7001E9
(0000000063.100000) vcan0 101#0E0CE12A640807BD
(0000000063.200000) vcan0 102#0144C60DE0F68071
(0000000063.200000) vcan0 103#8007B2217E8001FE
(0000000063.200000) vcan0 101#110CE82A640808FE
(0000000063.300000) vcan0 102#0144CE0D44F79071
(0000000063.300000) vcan0 103#93075F217E9001C1
(0000000063.300000) vcan0 101#120CE32A640809CD
(0000000063.400000) vcan0 102#0144D70DA8F7A052
(0000000063.400000) vcan0 103#A6070C217EA0012D
(0000000063.400000) vcan0 101#120CD22A64080AAF
(0000000063.500000) vcan0 102#0144DF0D0CF8B0BD
(0000000063.500000) vcan0 103#B907B7207EB00124
(0000000063.500000) vcan0 101#150CD82A64080B9F
(0000000063.600000) vcan0 102#0144E80D70F8C082
(0000000063.600000) vcan0 103#CF0757207EC001A9
(0000000063.600000) vcan0 101#170CE02A64080C2E
(0000000063.700000) vcan0 102#0144F10DD4F8D04A
(0000000063.700000) vcan0 103#E507F51F7FD001A4
(0000000063.700000) vcan0 101#190CE82A64080D45
(0000000063.800000) vcan0 102#0144F90D38F9E0A1
(0000000063.800000) vcan0 103#FB07941F7FE001E9
(0000000063.800000) vcan0 101#1C0CEF2A64080E5D
(0000000063.900000) vcan0 102#0144020E9CF9F07A
(0000000063.900000) vcan0 103#1F08F91E7FF0018A
(0000000063.900000) vcan0 101#1C0C082B64080FAB
(0000000064.000000) vcan0 102#01440A0E00FA0074
(0000000064.000000) vcan0 103#43085E1E7F00015D
(0000000064.000000) vcan0 101#1C0C202B640800A6
(0000000064.100000) vcan0 102#0144130E64FA101C
(0000000064.100000) vcan0 103#5708091E7F100143
(0000000064.100000) vcan0 101#1C0C352B6408018A
(0000000064.200000) vcan0 102#01441C0EC8FA20D0
(0000000064.200000) vcan0 103#5F08E81D7F2001FD
(0000000064.200000) vcan0 101#1F0C2C2B640802B9
(0000000064.300000) vcan0 102#0144240E2CFB309F
(0000000064.300000) vcan0 103#6708C81D7F30018C
(0000000064.300000) vcan0 101#210C232B6408030F
(0000000064.400000) vcan0 102#01442D0E90FB4039
(0000000064.400000) vcan0 103#7608851D7F400174
(0000000064.400000) vcan0 101#240C192B640804E4
(0000000064.500000) vcan0 102#0144360EF4FB5085
(0000000064.500000) vcan0 103#8A08321D805001DB
(0000000064.500000) vcan0 101#260C0C2B64080572
(0000000064.600000) vcan0 102#01443E0E58FC60BB
(0000000064.600000) vcan0 103#9F08DB1C8060016A
(0000000064.600000) vcan0 101#260CE82A64080600
(0000000064.700000) vcan0 102#0144470EBCFC704D
(0000000064.700000) vcan0 103#B408871C7F700139
(0000000064.700000) vcan0 101#260CC52A64080774
(0000000064.800000) vcan0 102#01444F0E20FD80DB
(0000000064.800000) vcan0 103#C808341C7F8001DA
(0000000064.800000) vcan0 101#200CBB2A640808BA
(0000000064.900000) vcan0 102#0144580E84FD9005
(0000000064.900000) vcan0 103#DC08E01B7F9001AD
(0000000064.900000) vcan0 101#180CBB2A640809A3
(0000000065.000000) vcan0 102#0144600EE8FDA04D
(0000000065.000000) vcan0 103#F0088C1B80A0012A
(0000000065.000000) vcan0 101#0F0CBB2A64080AB3
(0000000065.100000) vcan0 102#0144690E4CFEB0BF
(0000000065.100000) vcan0 103#0409391B80B001CB
(0000000065.100000) vcan0 101#080CB82A64080B9E
(0000000065.200000) vcan0 102#0144720EB0FEC043
(0000000065.200000) vcan0 103#1709E61A80C0010D
(0000000065.200000) vcan0 101#080CA42A64080CE1
(0000000065.300000) vcan0 102#01447A0E14FFD043
(0000000065.300000) vcan0 103#2B09941A80D001B0
(0000000065.300000) vcan0 101#050C822A64080DBA
(0000000065.400000) vcan0 102#0144830E78FFE0DD
(0000000065.400000) vcan0 103#3F09411A81E001A3
(0000000065.400000) vcan0 101#FE0B522A64080E9C
(0000000065.500000) vcan0 102#01448B0EDCFFF091
(0000000065.500000) vcan0 103#5A09CF1981F0011D
(0000000065.500000) vcan0 101#F80B652A47080FCA
(0000000065.600000) vcan0 102#0144940E400001F2
(0000000065.600000) vcan0 103#76095A19820001B5
(0000000065.600000) vcan0 101#F20B7C2A2808003C
(0000000065.700000) vcan0 102#01449C0EA40011DE
(0000000065.700000) vcan0 103#9209E51882100195
(0000000065.700000) vcan0 101#EC0B942A080801A3
(0000000065.800000) vcan0 102#0144A40E0801217A
(0000000065.800000) vcan0 103#A209A018822001C2
(0000000065.800000) vcan0 101#8F0BCE280018029F
(0000000065.900000) vcan0 102#0144AC0E6C013196
(0000000065.900000) vcan0 103#AB097A1882300108
(0000000065.900000) vcan0 101#120B582600180325
(0000000066.000000) vcan0 102#0144B30ED00141BF
(0000000066.000000) vcan0 103#B5094F18834001E4
(0000000066.000000) vcan0 101#8D0AC82500180403
(0000000066.100000) vcan0 102#0144BA0E3402512D
(0000000066.100000) vcan0 103#C2091618835001BA
(0000000066.100000) vcan0 101#060AEB25001805F5
(0000000066.200000) vcan0 102#0144C10E980261E4
(0000000066.200000) vcan0 103#D909B317836001A2
(0000000066.200000) vcan0 101#90095B2600180665
(0000000066.300000) vcan0 102#0144C70EFC02711E
(0000000066.300000) vcan0 103#F00952178470016B
(0000000066.300000) vcan0 101#2109E7260018079C
(0000000066.400000) vcan0 102#0144CC0E60038136
(0000000066.400000) vcan0 103#FA092A1784800126
(0000000066.400000) vcan0 101#B208742700180870
(0000000066.500000) vcan0 102#0144D20EC40391F5
(0000000066.500000) vcan0 103#030A0317849001A2
(0000000066.500000) vcan0 101#4208D3270017098E
(0000000066.600000) vcan0 102#0144D70E2804A103
(0000000066.600000) vcan0 103#080AE41684A001BD
(0000000066.600000) vcan0 101#D007192700170AD1
(0000000066.700000) vcan0 102#0144DC0E8C04B1F1
(0000000066.700000) vcan0 103#100AB61684B001C7
(0000000066.700000) vcan0 101#5E075F2600170B0F
(0000000066.800000) vcan0 102#0144E10EF004C16D
(0000000066.800000) vcan0 103#1B0A751684C001DB
(0000000066.800000) vcan0 101#FC06892500160CAB
(0000000066.900000) vcan0 102#0144E50E5405D1AF
(0000000066.900000) vcan0 103#260A301684D0011F
(0000000066.900000) vcan0 101#BD067B2400160DEF
(0000000067.000000) vcan0 102#0144EA0EB805E103
(0000000067.000000) vcan0 103#2B0A091684E0010A
(0000000067.000000) vcan0 101#7E066D2300160E2B
(0000000067.100000) vcan0 102#0144EE0E1C06F159
(0000000067.100000) vcan0 103#2E0AEF1584F0012C
(0000000067.100000) vcan0 101#3E065E2200160FE4
(0000000067.200000) vcan0 102#0144F20E800601D8
(0000000067.200000) vcan0 103#310AD515840001A7
(0000000067.200000) vcan0 101#FE05502100160046
(0000000067.300000) vcan0 102#0144F60EE40611F6
(0000000067.300000) vcan0 103#2D0AB7158410019B
(0000000067.300000) vcan0 101#C705A620001401F5
(0000000067.400000) vcan0 102#0144FA0E480721C8
(0000000067.400000) vcan0 103#270A8C15842001D4
(0000000067.400000) vcan0 101#900504200014020D
(0000000067.500000) vcan0 102#0144FD0EAC073198
(0000000067.500000) vcan0 103#1D0A5B158330010D
(0000000067.500000) vcan0 101#6F059F1F01140369
(0000000067.600000) vcan0 102#0144010F1008414C
(0000000067.600000) vcan0 103#140A2F15834001AC
(0000000067.600000) vcan0 101#4F053F1F0214043B
(0000000067.700000) vcan0 102#0144050F74085162
(0000000067.700000) vcan0 103#0A0A1015835001F3
(0000000067.700000) vcan0 101#3005DF1E04140597
(0000000067.800000) vcan0 102#0144080FD808617A
(0000000067.800000) vcan0 103#FD09F81483600148
(0000000067.800000) vcan0 101#2505C21E0414067B
(0000000067.900000) vcan0 102#01440C0F3C0971D8
(0000000067.900000) vcan0 103#F009E3148370013D
(0000000067.900000) vcan0 101#2105BF1E05140798
(0000000068.000000) vcan0 102#0144100FA0098159
(0000000068.000000) vcan0 103#E109CC1483800186
(0000000068.000000) vcan0 101#1D05D31E080408E3
(0000000068.100000) vcan0 102#0144130F040A9108
(0000000068.100000) vcan0 103#CD09AB14839001B3
(0000000068.100000) vcan0 101#1B05171F13040921
(0000000068.200000) vcan0 102#0144170F680AA1AD
(0000000068.200000) vcan0 103#B8098A1482A0016A
(0000000068.200000) vcan0 101#19055C1F1E040A6F
(0000000068.300000) vcan0 102#01441A0FCC0AB13E
(0000000068.300000) vcan0 103#A309681482B001FB
(0000000068.300000) vcan0 101#1705A11F28040B65
(0000000068.400000) vcan0 102#01441E0F300BC11C
(0000000068.400000) vcan0 103#9309461481C0015D
(0000000068.400000) vcan0 101#1505E61F32040C0F
(0000000068.500000) vcan0 102#0144220F940BD1CA
(0000000068.500000) vcan0 103#8509261481D001DD
(0000000068.500000) vcan0 101#1405BD1F33040D78
(0000000068.600000) vcan0 102#0144250FF80BE1D1
(0000000068.600000) vcan0 103#79090B1481E00167
(0000000068.600000) vcan0 101#1405341F2A040EFA
(0000000068.700000) vcan0 102#0144290F5C0CF1D1
(0000000068.700000) vcan0 103#7009ED1381F001B4
(0000000068.700000) vcan0 101#2705731F20040F4D
(0000000068.800000) vcan0 102#01442D0FC00C01C9
(0000000068.800000) vcan0 103#6809C91381000149
(0000000068.800000) vcan0 101#4A0562201404000C
(0000000068.900000) vcan0 102#0144310F240D11F2
(0000000068.900000) vcan0 103#60098D1381100105
(0000000068.900000) vcan0 101#5705FA201504017B
(0000000069.000000) vcan0 102#0144340F880D219D
(0000000069.000000) vcan0 103#5A0941138020018B
(0000000069.000000) vcan0 101#520547212304027C
(0000000069.100000) vcan0 102#0144380FEC0D31C4
(0000000069.100000) vcan0 103#59091B138030010A
(0000000069.100000) vcan0 101#5C05E2212F040357
(0000000069.200000) vcan0 102#01443C0F500E411E
(0000000069.200000) vcan0 103#5A09081380400196
(0000000069.200000) vcan0 101#7305C4223A0404BC
(0000000069.300000) vcan0 102#0144400FB40E5137
(0000000069.300000) vcan0 103#5C09F51280500157
(0000000069.300000) vcan0 101#8A05A5234604056C
(0000000069.400000) vcan0 102#0144440F180F617E
(0000000069.400000) vcan0 103#5D09E012806001FA
(0000000069.400000) vcan0 101#A005862451040655
(0000000069.500000) vcan0 102#0144490F7C0F714D
(0000000069.500000) vcan0 103#6009BA12807001AC
(0000000069.500000) vcan0 101#B90570255B04071E
(0000000069.600000) vcan0 102#01444D0FE00F8155
(0000000069.600000) vcan0 103#64098B127F80016C
(0000000069.600000) vcan0 101#E30592265E040830
(0000000069.700000) vcan0 102#0144510F44109155
(0000000069.700000) vcan0 103#6B0955127F9001C0
(0000000069.700000) vcan0 101#0D06B5276104090F
(0000000069.800000) vcan0 102#0144560FA810A18E
(0000000069.800000) vcan0 103#730920127EA0018A
(0000000069.800000) vcan0 101#3606D72863040A2A
(0000000069.900000) vcan0 102#01445B0F0C11B151
(0000000069.900000) vcan0 103#7C09E8117EB00113
(0000000069.900000) vcan0 101#5E06902964040BD7
(0000000070.000000) vcan0 102#01445F0F7011C1FF
(0000000070.000000) vcan0 103#8809AA117EC001B3
(0000000070.000000) vcan0 101#8406E92964040C87
(0000000070.100000) vcan0 102#0144640FD411D122
(0000000070.100000) vcan0 103#94096F117ED00166
(0000000070.100000) vcan0 101#AA064E2A64040DA7
(0000000070.200000) vcan0 102#0144690F3812E18E
(0000000070.200000) vcan0 103#A0093E117EE00103
(0000000070.200000) vcan0 101#DA06062B64040EFD
(0000000070.300000) vcan0 102#01446F0F9C12F1D4
(0000000070.300000) vcan0 103#AC090D117EF0019D
(0000000070.300000) vcan0 101#0A07BE2B64040F1B
(0000000070.400000) vcan0 102#0144740F00130112
(0000000070.400000) vcan0 103#B309F0107E00013C
(0000000070.400000) vcan0 101#3907762C640400AE
(0000000070.500000) vcan0 102#0144790F64131121
(0000000070.500000) vcan0 103#B809DB107E1001B5
(0000000070.500000) vcan0 101#69072E2D6404014F
(0000000070.600000) vcan0 102#01447F0FC81321F0
(0000000070.600000) vcan0 103#C209B7107E200188
(0000000070.600000) vcan0 101#88073A2D6404027E
(0000000070.700000) vcan0 102#0144840F2C143108
(0000000070.700000) vcan0 103#D30978107E300118
(0000000070.700000) vcan0 101#A207F62C64040387
(0000000070.800000) vcan0 102#01448A0F901441A5
(0000000070.800000) vcan0 103#EB0923107F400100
